# GHZ S DB R 50.0
! Port[1] = 

72.000          -4.110782607414    138.347955350039
72.200          -4.085792934109    138.247583606691
72.400          -4.307741252724    138.820466822097
72.600          -4.254937101075    138.835066456199
72.800          -4.475388913829    139.602977179150
73.000          -4.447534356417    139.387543283414
73.200          -4.680935838988    140.248556361052
73.400          -4.675497400930    139.752155833713
73.600          -4.918213310405    140.332133781339
73.800          -4.929315513003    140.234790270055
74.000          -5.107444304061    140.686667640097
74.200          -5.217023792023    140.225061696402
74.400          -5.346512617571    140.550968150145
74.600          -5.497656289903    140.347665846906
74.800          -5.569643568672    140.645837954403
75.000          -5.688094074011    140.377951108644
75.200          -5.813295888920    140.097051649196
75.400          -5.907456423431    139.617489160691
75.600          -6.057680909753    139.812721050972
75.800          -6.176270305411    139.113611228791
76.000          -6.264848416297    139.001794996103
76.200          -6.555056339803    137.294496243859
76.400          -6.740840411833    139.072941794778
76.600          -6.656450485638    139.579320986020
76.800          -6.782878050616    138.233198464116
77.000          -7.114671162554    137.796795416388
77.200          -7.143911226525    137.696905992097
77.400          -7.390092990298    137.910604597969
77.600          -7.414287313602    137.713480244782
77.800          -7.637409493886    138.019938797546
78.000          -7.599496606271    137.359335201534
78.200          -7.811314740756    138.540756319298
78.400          -7.721653866534    137.630270345360
78.600          -7.935595010155    139.017394428658
78.800          -7.854937343941    137.848914044908
79.000          -7.959163526791    139.542673742993
79.200          -7.974699976135    138.477625449048
79.400          -7.994257608550    140.074937606878
79.600          -8.034124450227    139.285024658842
79.800          -8.005570591214    140.554214109947
80.000          -8.089416074145    140.324702109049
80.200          -7.990624942679    141.551716762446
80.400          -8.135368556095    141.438541864458
80.600          -7.971498003235    142.030024300110
80.800          -8.157067159657    142.974628935409
81.000          -7.975393485746    143.106194944351
81.200          -8.083619385459    144.750132789668
81.400          -7.990418954574    144.248344403358
81.600          -8.082985194568    147.116276563028
81.800          -7.945811778367    145.871304535827
82.000          -7.922861065485    149.037151375759
