# GHZ S RI R 50.0
! Port[1] = 

72.000          -0.467413201041    0.417846139045
72.200          -0.463996746229    0.411725422386
72.400          -0.461012541720    0.405281845961
72.600          -0.458956358645    0.398635791111
72.800          -0.456512546667    0.391871304528
73.000          -0.453329989611    0.385041770218
73.200          -0.449380528100    0.378290195814
73.400          -0.444132214019    0.372390559463
73.600          -0.438804388514    0.366080917949
73.800          -0.434561686931    0.359857322521
74.000          -0.429170573700    0.354305878380
74.200          -0.422491108368    0.349242627155
74.400          -0.416198776377    0.344081247790
74.600          -0.410529267760    0.338738841792
74.800          -0.405854249553    0.334508995392
75.000          -0.400066587324    0.331261553889
75.200          -0.392896646473    0.329126086602
75.400          -0.386202676804    0.326526186916
75.600          -0.379431207860    0.323045349325
75.800          -0.372434287783    0.320791746417
76.000          -0.362562032058    0.319608541612
76.200          -0.351362271484    0.314530258834
76.400          -0.348733129927    0.305777718048
76.600          -0.349209601135    0.302322111504
76.800          -0.340785381901    0.301919165582
77.000          -0.329843115892    0.298235664434
77.200          -0.323315495525    0.293418634206
77.400          -0.318440387045    0.288664125888
77.600          -0.313886869577    0.284222403917
77.800          -0.309703461322    0.281037008058
78.000          -0.306721007878    0.277924140903
78.200          -0.305068604391    0.274513638128
78.400          -0.303799891032    0.271583871157
78.600          -0.302372504902    0.268661906412
78.800          -0.301877056618    0.266473268672
79.000          -0.301966672438    0.263859102056
79.200          -0.301950587907    0.261159426785
79.400          -0.302647535182    0.258685256620
79.600          -0.303476560118    0.256459390427
79.800          -0.304585154614    0.253955117188
80.000          -0.306474367080    0.250946120180
80.200          -0.308497721499    0.247890797195
80.400          -0.309972951023    0.245552018392
80.600          -0.312096116498    0.242800103004
80.800          -0.314611403184    0.239050934420
81.000          -0.318197785097    0.235589039055
81.200          -0.321711637161    0.231908822406
81.400          -0.325089139390    0.226863151465
81.600          -0.329417091589    0.221458837949
81.800          -0.334768840855    0.217617393695
82.000          -0.341309750723    0.211244393148
