! Touchstone file exported from HFSS 2020.2.0
!        File:           /home/erdoel/scratch/Other/CoaxWG.aedt
!        Generated:      10:26:58 AM  Oct 13, 2021
!        Design:         HFSSDesign1
!        Project:        CoaxWG
!        Setup:          Setup1
!        Solution:       Sweep
!
! Variables:
!        th = 0.05mm
!        w = 0.2mm
!
# GHZ S MA R 50.000000
! Terminal data exported
! Port[1] = 1
! Port[2] = 2
1                              0.266092890343719 70.256438428908  0.962232045867442 160.504754422474 0.962232045867442 160.504754422474 0.266132473130894 70.0521472304827 
! Gamma         0.0832532955456785 21.0541534129627 0.0835659660843104 21.0561998086374 
! Port Impedance         50               0                50               0                
2                              0.474247160104389 53.2990738343636 0.878279062160962 143.484683897488 0.878279062160961 143.484683897488 0.474281831873575 53.2000868103724 
! Gamma         0.122822890785234 42.0546075328363 0.123887440470249 42.0581502165833 
! Port Impedance         50               0                50               0                
3                              0.613733789665332 39.4749491317896 0.787316792974877 129.624980633824 0.787316792974877 129.624980633824 0.613759657706982 39.4142888034233 
! Gamma         0.153687343639926 63.0452103375811 0.155484670666632 63.0499286228148 
! Port Impedance         50               0                50               0                
4                              0.700571629052437 28.3088755182355 0.711432484310815 118.432958519319 0.711432484310814 118.432958519319 0.700588728607237 28.2697844985862 
! Gamma         0.179902550144018 84.0307142441251 0.182386340832635 84.0364247526383 
! Port Impedance         50               0                50               0                
5                              0.752620057726722 19.015060203612  0.656389193830873 109.117222005907 0.656389193830872 109.117222005907 0.752629309168021 18.9910117377776 
! Gamma         0.203099093009615 105.012965587856 0.206225332363975 105.019547370574 
! Port Impedance         50               0                50               0                
6                              0.78184747495067 10.9033792268002 0.62147788891054 100.985073667964 0.62147788891054 100.985073667964 0.781849773483627 10.89139324551   
! Gamma         0.224130245696851 125.99291074148  0.227860647121135 126.000276894233 
! Port Impedance         50               0                50               0                
7                              0.794859118327726 3.43171208525068 0.60484009484341 93.4927790563092 0.60484009484341 93.4927790563092 0.794855111515288 3.43048389807016 
! Gamma         0.24350951908594 146.971111172201 0.247811179902285 146.979195613392 
! Port Impedance         50               0                50               0                
8                              0.794481191157686 -3.84494179702433 0.605317679409813 86.193930505877  0.605317679409813 86.193930505877  0.794471257626519 -3.83566170090059 
! Gamma         0.261574576189624 167.947932198891 0.266419091190721 167.956682616669 
! Port Impedance         50               0                50               0                
9                              0.780626307154079 -11.3403105370336 0.622936442200332 78.6731152200451 0.622936442200332 78.6731152200451 0.780610587052762 -11.3198398219189 
! Gamma         0.278561571427649 188.923627235824 0.283924203857006 188.933000957358 
! Port Impedance         50               0                50               0                
10                             0.750266990864701 -19.5021241087742 0.65888862935171 70.4800057919432 0.658888629351711 70.4800057919432 0.750245442750769 -19.4686043284503 
! Gamma         0.294643366534745 209.898380567356 0.300502373001817 209.908341963089 
! Port Impedance         50               0                50               0                
11                             0.696520737913975 -28.8765532227769 0.714987725529459 61.0635467137371 0.714987725529459 61.0635467137371 0.696493268697518 -28.8261151246447 
! Gamma         0.309951016852987 230.872331159851 0.316287115625384 230.882849923606 
! Port Impedance         50               0                50               0                
12                             0.607067047380502 -40.1520561559646 0.791661334023242 49.7240761768333 0.791661334023241 49.7240761768333 0.607033883174641 -40.0763821093484 
! Gamma         0.324586696797167 251.845586868339 0.331382650953945 251.856636829497 
! Port Impedance         50               0                50               0                
13                             0.463896042185298 -54.0776214264982 0.882331945667828 35.678750017532  0.882331945667829 35.678750017532  0.463858863859107 -53.9551035517782 
! Gamma         0.338631898619487 272.818233387152 0.345872187431889 272.829791660061 
! Port Impedance         50               0                50               0                
14                             0.25203835051864 -70.9100432577029 0.963558048519718 18.4947962123276 0.963558048519719 18.4947962123276 0.252004921392091 -70.6501777322985 
! Gamma         0.352152860326205 293.790340140322 0.359823417756169 293.802386498196 
! Port Impedance         50               0                50               0                
15                             0.0144311811929643 76.792005176664  0.99530962989262 -0.976320712796091 0.995309629892619 -0.976320712796092 0.0147760723644097 72.3232401066432 
! Gamma         0.365204288299504 314.761964300762 0.373292292679248 314.774480703972 
! Port Impedance         50               0                50               0                
16                             0.276683128181144 69.0525771856882 0.956290211332981 -20.298623810519 0.956290211332981 -20.298623810519 0.276743135452842 68.825364598446  
! Gamma         0.377831987109995 335.733153617151 0.386325690288463 335.746123850067 
! Port Impedance         50               0                50               0                
17                             0.481229736604269 52.4998826266316 0.872122597510911 -37.1560375498093 0.872122597510912 -37.1560375498093 0.481274294304584 52.3910723811995 
! Gamma         0.390074764882465 356.703948454188 0.398963352039394 356.717357840194 
! Port Impedance         50               0                50               0                
18                             0.617899565446563 38.8909542130469 0.782093109052274 -50.8786833163932 0.782093109052274 -50.8786833163932 0.617932982958098 38.8258883108082 
! Gamma         0.401965844263355 377.674383297571 0.411239317691255 377.688218472752 
! Port Impedance         50               0                50               0                
19                             0.702918870644366 27.8592881583968 0.707401784252313 -61.9754506536768 0.707401784252314 -61.9754506536768 0.702943190812924 27.818903082384  
! Gamma         0.413533927225991 398.644487886725 0.423183009222528 398.658736617282 
! Port Impedance         50               0                50               0                
20                             0.753834955489775 18.649609166312  0.653429053747072 -71.2315393197794 0.653429053747071 -71.2315393197794 0.753851690624249 18.6265605744281 
! Gamma         0.424804012240811 419.614288081708 0.434820063302724 419.628939114354 
! Port Impedance         50               0                50               0                
21                             0.782317362884033 10.5892108358214 0.61940087924017 -79.3301685124454 0.61940087924017 -79.3301685124454 0.78232759039893 10.5803076695261 
! Gamma         0.435798030792613 440.583806535903 0.446172980127491 440.598849475011 
! Port Impedance         50               0                50               0                
22                             0.794774266744481 3.14615684978718 0.603497345959188 -86.8083285839637 0.603497345959188 -86.8083285839637 0.794778695436223 3.15025476621088 
! Gamma         0.446535349743578 461.553063226756 0.457261635874842 461.568488431506 
! Port Impedance         50               0                50               0                
23                             0.793902092492082 -4.11914859338806 0.604617310040147 -94.1089074796082 0.604617310040146 -94.1089074796082 0.79390113841282 -4.10178876271406 
! Gamma         0.457033172603826 482.522075878032 0.46810369225956 482.537874376121 
! Port Impedance         50               0                50               0                
24                             0.779509497320616 -11.6182452979294 0.622836897633554 -101.646496594163 0.622836897633553 -101.646496594163 0.779503357529641 -11.5859620832707 
! Gamma         0.467306863503021 503.490860300405 0.478714927368134 503.507023714738 
! Port Impedance         50               0                50               0                
25                             0.748457389803595 -19.7988961089688 0.659380088454246 -109.872882288067 0.659380088454246 -109.872882288067 0.748446138837714 -19.7480629089539 
! Gamma         0.477370211315852 524.459430668501 0.489109505514235 524.475951154859 
! Port Impedance         50               0                50               0                
26                             0.693717918899218 -29.2083071704032 0.716046924129679 -119.342337783066 0.716046924129678 -119.342337783066 0.693701718537339 -29.1317158906796 
! Gamma         0.487235646943979 545.427799748462 0.499300199352971 545.444669941523 
! Port Impedance         50               0                50               0                
27                             0.602797217934581 -40.5331420349176 0.793133609541467 -130.757405282839 0.793133609541467 -130.757405282839 0.602776925277303 -40.4153896133615 
! Gamma         0.496914423497329 566.39597908637  0.509298574112563 566.413192053442 
! Port Impedance         50               0                50               0                
28                             0.457635601626792 -54.5031207519669 0.883683526447087 -144.895909809305 0.883683526447087 -144.895909809305 0.457614843067376 -54.3037719471273 
! Gamma         0.506416766867173 587.363979165431 0.519115141644519 587.381528365894 
! Port Impedance         50               0                50               0                
29                             0.24382703991815 -71.2656341497647 0.963679207744452 -162.161689138564 0.963679207744451 -162.161689138564 0.243823204965253 -70.8103911900823 
! Gamma         0.51575200241282 608.331809538094 0.528759490064241 608.349688788088 
! Port Impedance         50               0                50               0                
30                             0.0231961432306349 78.0760675767749 0.993198451842219 178.350874036514 0.99319845184222 178.350874036514 0.0237240080291219 72.9339357446432 
! Gamma         0.524928662223593 629.299478937752 0.538240393569017 629.317682379032 
! Port Impedance         50               0                50               0                
31                             0.283779142338114 68.2994842762775 0.952434842670792 159.098958670288 0.952434842670792 159.098958670288 0.283864587605585 67.8529601892239 
! Gamma         0.533954576528585 650.266995373725 0.547565906021165 650.28551744627  
! Port Impedance         50               0                50               0                
32                             0.485883503806395 51.9490177290942 0.867986119834404 142.350373555589 0.867986119834404 142.350373555589 0.485945085190446 51.7004908433618 
! Gamma         0.542836951936448 671.23436621265  0.556743441133442 671.253201630443 
! Port Impedance         50               0                50               0                
33                             0.620580568094954 38.4746280814719 0.77861353255202 128.723229015873 0.77861353255202 128.723229015873 0.620629336748716 38.2947989432639 
! Gamma         0.551582438861292 692.201598248491 0.5657798415205  692.220741977692 
! Port Impedance         50               0                50               0                
34                             0.704307857522257 27.5330503128159 0.704814473428295 117.692446957554 0.704814473428296 117.692446957554 0.704347512606228 27.3870582822909 
! Gamma         0.560197189818999 713.168697762804 0.574681438474904 713.188145002577 
! Port Impedance         50               0                50               0                
35                             0.754404213491645 18.381400454901  0.65166880053914 108.475879229431 0.65166880053914 108.475879229431 0.754436903245666 18.2543852725767 
! Gamma         0.568686910114232 734.135670577389 0.583454103907583 734.155416742538 
! Port Impedance         50               0                50               0                
36                             0.782326552522382 10.3568529512599 0.61834754884337 100.396590546925 0.61834754884337 100.396590546925 0.782353698191   10.2406199908533 
! Gamma         0.577056902062821 755.102522099991 0.592103295717645 755.122562805327 
! Port Impedance         50               0                50               0                
37                             0.794337798732129 2.93394544767062 0.60305814907403 92.9220643251118 0.603058149074029 92.9220643251118 0.794360353485462 2.82293944374581 
! Gamma         0.58531210375877 776.069257364404 0.600634097538115 776.089588410763 
! Port Impedance         50               0                50               0                
38                             0.793032718405367 -4.32323730301871 0.604743301839763 85.6114606797207 0.604743301839763 85.6114606797207 0.793051289390137 -4.43363604203217 
! Gamma         0.593457123166791 797.035881065716 0.609051253723413 797.05649842717  
! Port Impedance         50               0                50               0                
39                             0.778130363186335 -11.8244326068172 0.623518502133888 78.0500667028427 0.623518502133888 78.0500667028427 0.778145254583903 -11.9389739170957 
! Gamma         0.601496268226345 818.002397591291 0.617359200224405 818.023297403658 
! Port Impedance         50               0                50               0                
40                             0.746386736570919 -20.0164454225469 0.660629472803297 69.7840549889073 0.660629472803298 69.7840549889073 0.74639790614013 -20.1411460103972 
! Gamma         0.609433573501388 838.96881104838  0.625562091955637 838.989989598726 
! Port Impedance         50               0                50               0                
41                             0.690632690976282 -29.4441686574551 0.717849802386746 60.2557137028878 0.717849802386747 60.2557137028878 0.690639551508049 -29.5883205065208 
! Gamma         0.617272823875486 859.93512528844  0.633663827102345 859.956579005561 
! Port Impedance         50               0                50               0                
42                             0.598211770197452 -40.7832032533836 0.79532195235417 48.7600360373897 0.79532195235417 48.7600360373897 0.59821258816118 -40.9644564678894 
! Gamma         0.625017575663235 880.901343929002 0.641668068806524 880.923069374531 
! Port Impedance         50               0                50               0                
43                             0.451055052883887 -54.7140950290934 0.885677651952915 34.52590242143   0.885677651952914 34.52590242143   0.451044832113071 -54.9766711791541 
! Gamma         0.632671175478625 901.867470372989 0.649578264537478 901.889464233523 
! Port Impedance         50               0                50               0                
44                             0.235421639014152 -71.1110391987012 0.964318167940188 17.1814415758387 0.964318167940188 17.1814415758387 0.235378718970078 -71.646226521546 
! Gamma         0.640236777152848 922.833507826135 0.657397663462464 922.855766905897 
! Port Impedance         50               0                50               0                
45                             0.0324303783351012 74.3918003892246 0.991519326402154 -2.31276647057497 0.991519326402156 -2.31276647057497 0.0319846398450117 78.2174668456341 
! Gamma         0.647717356931343 943.799459312689 0.665129332064001 943.821980526635 
! Port Impedance         50               0                50               0                
46                             0.290698305012044 67.1175898395078 0.949045622086397 -21.4839169612403 0.949045622086397 -21.4839169612403 0.290643552128135 67.5158126280986 
! Gamma         0.655115727167607 964.765327689391 0.672776168201859 964.788108057105 
! Port Impedance         50               0                50               0                
47                             0.490215117075602 51.1619906770602 0.864398707904501 -38.1179910954761 0.8643987079045  -38.1179910954761 0.490183636245795 51.3658532459459 
! Gamma         0.662434548684355 985.731115658267 0.680340913817287 985.754152298153 
! Port Impedance         50               0                50               0                
48                             0.622900129001511 37.8891006059874 0.775745192380773 -51.6486421479077 0.775745192380774 -51.6486421479077 0.622876942202357 38.0226939261842 
! Gamma         0.669676341966313 1006.69682577802 0.687826166434552 1006.72011590197 
! Port Impedance         50               0                50               0                
49                             0.705328807116502 27.0679997148594 0.702880010591517 -62.6152761537655 0.702880010591517 -62.6152761537656 0.705309257456537 27.1641605609714 
! Gamma         0.676843497310404 1027.6624604745  0.695234389585908 1027.68600138301 
! Port Impedance         50               0                50               0                
50                             0.754597072553464 17.9886368658852 0.65060086780491 -71.7958648553824 0.65060086780491 -71.7958648553824 0.754578959220478 18.0600616383002 
! Gamma         0.683938284047704 1048.62802205018 0.702567922302854 1048.65181112771 
! Port Impedance         50               0                50               0                
51                             0.781934521688277 10.004981584152  0.618038177493755 -79.8607658082229 0.618038177493755 -79.8607658082229 0.781916554754109 10.0570778769826 
! Gamma         0.690962858945997 1069.59351269269 0.709828987741603 1069.61754740352 
! Port Impedance         50               0                50               0                
52                             0.793448741382758 2.60054134191727 0.603437112684064 -87.3382744739346 0.603437112684064 -87.3382744739346 0.793430002256377 2.635059257353   
! Gamma         0.697919273874059 1090.5589344828  0.717019701071793 1090.58321236692 
! Port Impedance         50               0                50               0                
53                             0.791619471694731 -4.65646110317433 0.605793737976989 -94.6678829454483 0.605793737976989 -94.6678829454483 0.791599142618864 -4.6403468218154 
! Gamma         0.704809482810912 1111.52428940146 0.724142076674234 1111.54880807102 
! Port Impedance         50               0                50               0                
54                             0.776053265556008 -12.174916694523 0.625272807993069 -102.265651837363 0.625272807993069 -102.265651837363 0.776030423838289 -12.1806816803649 
! Gamma         0.71163534825879 1132.48957933643 0.731198034749031 1132.51433647225 
! Port Impedance         50               0                50               0                
55                             0.743360455755469 -20.4031224611847 0.663149361003302 -110.589397751993 0.663149361003302 -110.589397751993 0.743333813777607 -20.4380701960976 
! Gamma         0.718398647132336 1153.45480608836 0.738189407357522 1153.47979943668 
! Port Impedance         50               0                50               0                
