! Touchstone file exported from HFSS 2020.1.3
!        File:           /home/erdoel/scratch/P2S30/WR12_SIW_MS_Transition_1.aedt
!        Generated:      8:31:25 AM  Feb 20, 2021
!        Design:         Design1_Al_SR_Simple1_er307_back2back
!        Project:        WR12_SIW_MS_Transition_1
!        Setup:          Setup1
!        Solution:       Sweep
!
! Variables:
!        T_L2 = 35um
!        fil = 0.3mm
!        hm = 0.36mm
!        hsub = 0.127mm
!        hwg = 1.55mm
!        l1 = 1.05mm
!        lcav = 1.92mm
!        len50 = 12.805mm
!        lt = 0.7mm
!        offx = 0um
!        offy = 0um
!        rvia = 0.075mm
!        s1 = 1.33mm
!        shift = 20um
!        sl = 3.1mm
!        sy = 0.65mm
!        th = 35um
!        w1 = 1.17mm
!        w50 = 300um
!        wcav = 3.45mm
!        wm = 1.9mm
!        wslot = 1.5mm
!        wt = 0.6mm
!        wwg = 3.1mm
!
!Data is not renormalized
# GHZ S MA
! Terminal data exported
! Port[1] = WG
! Port[2] = WG1
70                             0.793108159927292 -160.726326502736 0.0423961435508313 -81.5974284582491 0.0423961435508313 -81.5974284582491 0.792998523978501 -160.612806524849 
! Gamma         0.293001798729598 1044.04529449968 0                0                0                0                0.293075194636612 1044.04659677315 
! Port Impedance538.162743267182 0.0908255109384094 0                0                0                0                538.160486744085 0.0908294007555991 

70.1                           0.78502619295722 -165.806476130344 0.0348257766652438 -86.3619054978425 0.034825776665243 -86.3619054978459 0.784981287394042 -165.675099761663 
! Gamma         0.292549129859883 1046.98870037995 0                0                0                0                0.292622687814405 1046.98999939655 
! Port Impedance537.416405624153 0.0900833654203536 0                0                0                0                537.414155509784 0.0900874762753783 

70.2                           0.77591169758697 -171.114858973022 0.0289176739510265 -85.35144633542  0.0289176739510249 -85.3514463354222 0.775975125613731 -170.96775618804 
! Gamma         0.292100576176706 1049.9280387485  0                0                0                0                0.292174295702848 1049.92933453164 
! Port Impedance536.676331680216 0.0893502395878487 0                0                0                0                536.674087904883 0.0893545708673357 

70.3                           0.765266580039504 -176.659395871925 0.0252927505200608 -79.4024681413635 0.0252927505200598 -79.4024681413637 0.76546554518801 -176.498138787114 
! Gamma         0.291656087877845 1052.86334367113 0                0                0                0                0.291729968503793 1052.86463624394 
! Port Impedance535.942443057362 0.0886259827193671 0                0                0                0                535.940205552447 0.0886305338190691 

70.4                           0.75255349471845 177.553041834068 0.0241072768507923 -69.9751111860933 0.024107276850792 -69.9751111860928 0.752904068935035 177.727543386137 
! Gamma         0.291215615986503 1055.7946487883  0                0                0                0                0.291289657244249 1055.79593817364 
! Port Impedance535.214662702304 0.0879104473019361 0                0                0                0                535.212431400243 0.0879152176265559 

70.5                           0.737188061103797 171.517612511972 0.0256111512695178 -59.544329028234 0.0256111512695178 -59.5443290282342 0.737700499010671 171.705163464888 
! Gamma         0.290779112333689 1058.72198732232 0                0                0                0                0.290853313758917 1058.7232735428  
! Port Impedance534.492914858154 0.0872034889481956 0                0                0                0                534.49068969241  0.0872084779112175 

70.6                           0.718529215500137 165.23341926324  0.0301040863184808 -51.0503945405238 0.0301040863184809 -51.0503945405241 0.71921311402007 165.434506494324 
! Gamma         0.290346529541155 1061.64539208439 0                0                0                0                0.290420890673183 1061.64667516235 
! Port Impedance533.777125036806 0.0865049663159747 0                0                0                0                533.774905941854 0.0865101733395009 

70.7                           0.695870125073575 158.707450900849 0.0378553591083937 -46.3007040973384 0.0378553591083936 -46.3007040973387 0.696738946188582 158.923088536974 
! Gamma         0.289917821004812 1064.56489548144 0                0                0                0                0.289992341386541 1064.56617543895 
! Port Impedance533.067219992058 0.085814741030302 0                0                0                0                533.065006903362 0.0858201655448942 

70.8                           0.668440316408123 151.962664483727 0.049208144396819 -45.5880467769385 0.0492081443968188 -45.5880467769386 0.669514540793061 152.194073014584 
! Gamma         0.289492940878568 1067.48052952284 0                0                0                0                0.289567620056439 1067.48180638174 
! Port Impedance532.363127693406 0.0851326776077625 0                0                0                0                532.360920547399 0.0851383190522877 

70.9                           0.635449375498901 145.05398420593  0.0646670593992892 -48.4959550798493 0.0646670593992892 -48.4959550798494 0.636757387634195 145.302032874322 
! Gamma         0.289071844058587 1070.39232582706 0                0                0                0                0.289146681582542 1070.39359960891 
! Port Impedance531.664777300511 0.0844586433831216 0                0                0                0                531.662576034578 0.0844645012046021 

71                             0.596242040381993 138.097880307869 0.0848365496475137 -54.528801357526 0.0848365496475138 -54.528801357526 0.597817763855883 138.362143975325 
! Gamma         0.288654486167942 1073.30031562801 0                0                0                0                0.288729481591616 1073.30158635414 
! Port Impedance530.972099138323 0.0837925084381376 0                0                0                0                530.969903690778 0.0837985820916041 

71.1                           0.550691892029953 131.320210304986 0.110198941470279 -63.2960341285398 0.110198941470279 -63.2960341285398 0.552567965291413 131.597306621379 
! Gamma         0.288240823541631 1076.20452978145 0                0                0                0                0.288315976421394 1076.20579747297 
! Port Impedance530.285024672821 0.0831341455324875 0                0                0                0                530.282834982893 0.0831404344808364 

71.2                           0.499973686909167 125.111675994384 0.14072978889293 -74.4761735384253 0.14072978889293 -74.4761735384253 0.502167811011192 125.392299702144 
! Gamma         0.287830813212318 1079.10499877108 0                0                0                0                0.287906123108333 1079.10626344883 
! Port Impedance529.603486487377 0.08248343003674 0                0                0                0                529.601302495191 0.0824899337505877 

71.3                           0.447596387098187 120.024983363429 0.175441168705743 -87.7132345611497 0.175441168705743 -87.7132345611496 0.450086093040899 120.289558907096 
! Gamma         0.287424412894996 1082.00175271467 0                0                0                0                0.287499879371078 1082.00301439927 
! Port Impedance528.927418259739 0.081840239868337 0                0                0                0                528.925239906266 0.0818469578248356 

71.4                           0.39972716513345 116.550954102783 0.212179643942567 -102.527796988398 0.212179643942567 -102.527796988398 0.40241271133349 116.767931875746 
! Gamma         0.287021580974859 1084.89482136995 0                0                0                0                0.287097203597727 1084.89608008179 
! Port Impedance528.256754739411 0.0812044554231273 0                0                0                0                528.254581966565 0.0812113871100942 

71.5                           0.36298395806239 114.579543502751 0.248103389573708 -118.31337021472 0.248103389573708 -118.31337021472 0.365672747436204 114.71778384376  
! Gamma         0.286622276492389 1087.7842341404  0                0                0                0                0.286698054832088 1087.78548989964 
! Port Impedance527.591431726011 0.0805759595247396 0                0                0                0                527.589264476478 0.0805831044341054 

71.6                           0.339835644309589 113.065017407239 0.280767317093648 -134.444649388868 0.280767317093648 -134.444649388868 0.342312342736849 113.120016024763 
! Gamma         0.286226459130693 1090.67002008098 0                0                0                0                0.286302392760487 1090.67127290755 
! Port Impedance526.931386047647 0.0799546373543467 0                0                0                0                526.929224264963 0.0799619949863067 

71.7                           0.32649768954923 110.687815619505 0.309006433432303 -150.426977734063 0.309006433432303 -150.426977734063 0.328642136880639 110.687387474851 
! Gamma         0.285834089202566 1093.55220790367 0                0                0                0                0.285910177698894 1093.5534578173  
! Port Impedance526.276555540186 0.0793403763981912 0                0                0                0                526.274399168703 0.0793479462600198 

71.8                           0.316356599695061 106.807735059863 0.332957915484957 -165.977437755936 0.332957915484957 -165.977437755936 0.318170687853795 106.787446149783 
! Gamma         0.285445127637929 1096.43082598294 0                0                0                0                0.285521370580368 1096.43207300312 
! Port Impedance525.626879026906 0.0787330663903785 0                0                0                0                525.62472801177  0.0787408479963042 

71.9                           0.304252965494791 101.523825429375 0.353462784635887 178.995420821783 0.353462784635887 178.995420821783 0.305796835571747 101.508781659574 
! Gamma         0.285059535971579 1099.30590236109 0                0                0                0                0.285135932942802 1099.30714650712 
! Port Impedance524.982296298651 0.078132599258333 0                0                0                0                524.980150585793 0.0781405921294184 

72                             0.287715451063116 95.2241790143361 0.371463240753968 164.463867027334 0.371463240753969 164.463867027334 0.289051142811593 95.2293162867583 
! Gamma         0.284677276331228 1102.17746475353 0                0                0                0                0.284753826916971 1102.17870604448 
! Port Impedance524.342748094484 0.0775388690698118 0                0                0                0                524.340607630601 0.077547072733837 

72.1                           0.266244193261961 88.2971531931253 0.38768957493907 150.349986245794 0.38768957493907 150.349986245794 0.267421150665322 88.3337664375456 
! Gamma         0.284298311425836 1105.04554055385 0                0                0                0                0.28437501521486 1105.0467790086  
! Port Impedance523.708176082794 0.0769517719814232 0                0                0                0                523.706040815339 0.0769601859727723 

72.2                           0.240415295291765 81.0641913381349 0.402594363068606 136.569418007582 0.402594363068607 136.569418007582 0.241480049713627 81.1446140782097 
! Gamma         0.283922604534224 1107.91015683892 0                0                0                0                0.283999461118277 1107.91139247615 
! Port Impedance523.078522842874 0.0763712061886015 0                0                0                0                523.076392720037 0.0763798300481503 

72.3                           0.211339193023174 73.8009390853327 0.416405922165146 123.051728428871 0.416405922165148 123.051728428871 0.212346752928209 73.9396218058208 
! Gamma         0.28355011949395 1110.7713403738  0                0                0                0                0.283627128467734 1110.77257321197 
! Port Impedance522.453731846924 0.0757970718769889 0                0                0                0                522.451606817623 0.0758059051519965 

72.4                           0.180379874943174 66.7711261613193 0.429212470337684 109.745997751715 0.429212470337686 109.745997751715 0.181393868824424 66.9824662665059 
! Gamma         0.283180820689812 1113.62911761657 0                0                0                0                0.283257981651594 1113.63034767395 
! Port Impedance521.833747442499 0.0752292711751818 0                0                0                0                521.831627456365 0.0752383134191834 

72.5                           0.14896930420069 60.2546277314065 0.441036322795499 96.618924538135  0.441036322795501 96.6189245381349 0.150049113013642 60.54849979357   
! Gamma         0.282814673046323 1116.48351472309 0                0                0                0                0.282891985595471 1116.48474201775 
! Port Impedance521.21851483537  0.0746677081087943 0                0                0                0                521.21639984273  0.074676958881497 

72.6                           0.118438079517054 54.5803180734026 0.451884811428636 83.6500747900689 0.451884811428637 83.6500747900689 0.119620707096922 54.9562345687507 
! Gamma         0.282451642011504 1119.33455755163 0                0                0                0                0.282529105751887 1119.33578210147 
! Port Impedance520.607980072783 0.0741122885558001 0                0                0                0                520.605870024654 0.0741217474229806 

72.7                           0.0898700395837345 50.2023802381392 0.461777178859929 70.8268659514355 0.461777178859928 70.8268659514353 0.0911577922704683 50.6413591470556 
! Gamma         0.28209169355233 1122.18227166746 0                0                0                0                0.282169308090162 1122.18349349018 
! Port Impedance520.002090027129 0.0735629202031088 0                0                0                0                519.999984875202 0.0735725867365134 

72.8                           0.064034131992123 47.9358251913278 0.470752294322291 58.140570500925  0.47075229432229 58.1405705009249 0.0653939971259177 48.380319070563  
! Gamma         0.281734794142276 1125.0266823473  0                0                0                0                0.281812559086497 1125.02790146042 
! Port Impedance519.400792379984 0.0730195125043396 0                0                0                0                519.39869207661  0.0730293862815866 

72.9                           0.0414830244971772 49.8139919877376 0.478864275571365 45.5837922091412 0.478864275571363 45.5837922091412 0.0428507904737266 50.0802673457817 
! Gamma         0.281380910752127 1127.86781458371 0                0                0                0                0.281458825710773 1127.86903100459 
! Port Impedance518.804035606528 0.0724819766387538 0                0                0                0                518.80194010471  0.0724920572432377 

73                             0.0232107367055018 63.0353494856016 0.486173148402108 33.1493403220625 0.486173148402106 33.1493403220626 0.0244425702849601 62.2791960848272 
! Gamma         0.281030010840568 1130.70569308941 0                0                0                0                0.281108075432931 1130.70690683507 
! Port Impedance518.21176896033  0.0719502254713098 0                0                0                0                518.209678213707 0.0719605124921076 

73.1                           0.0144621282756159 110.380207122725 0.492736173834133 20.8301302261897 0.492736173834131 20.8301302261899 0.0148729709266495 106.251346693981 
! Gamma         0.280682062344988 1133.54034230145 0                0                0                0                0.280760276188827 1133.54155338897 
! Port Impedance517.623942458477 0.0714241735138042 0                0                0                0                517.621856421319 0.0714346665455836 

73.2                           0.0217472187060119 154.310043671173 0.498603167311708 8.61963024739451 0.498603167311706 8.61963024739481 0.0212385906374719 152.065445401928 
! Gamma         0.280337033672488 1136.37178638542 0                0                0                0                0.280415396386165 1136.37299483157 
! Port Impedance517.04050686706  0.0709037368870667 0                0                0                0                517.03842549425  0.0709144355299968 

73.3                           0.0340094967100494 166.998769323894 0.503816763231723 -3.48759449521944 0.503816763231721 -3.48759449521904 0.0333677949028234 166.096210359207 
! Gamma         0.279994893691098 1139.20004923944 0                0                0                0                0.280073404896883 1139.20125506085 
! Port Impedance516.461413686982 0.0703888332841756 0                0                0                0                516.459336934009 0.0703997371438391 

73.4                           0.046433553129157 170.287881801809 0.508416669181473 -15.4955706875185 0.508416669181471 -15.4955706875181 0.0458497689398031 169.833999401087 
! Gamma         0.279655611721191 1142.02515449819 0                0                0                0                0.279734271044086 1142.02635771132 
! Port Impedance515.886615140099 0.0698793819346615 0                0                0                0                515.884542963046 0.0698904906219682 

73.5                           0.0584326873594097 170.342026797355 0.512445779065993 -27.4070066368915 0.512445779065993 -27.4070066368912 0.0579525744622745 170.065596012743 
! Gamma         0.279319157527098 1144.84712553682 0                0                0                0                0.27939796459471 1144.84832615794 
! Port Impedance515.316064155672 0.0693753035696688 0                0                0                0                515.313996511206 0.0693866167007719 

73.6                           0.0700023090193879 168.83581576027  0.515955651519564 -39.2237888729303 0.515955651519564 -39.2237888729302 0.069638359765735 168.63553454949  
! Gamma         0.278985501308901 1147.66598547473 0                0                0                0                0.279064455751411 1147.66718351998 
! Port Impedance514.749714357132 0.0688765203880471 0                0                0                0                514.747651202494 0.0688880375842608 

73.7                           0.0811723977833977 166.342442039656 0.519009247183742 -50.947756683246 0.519009247183742 -50.9477566832459 0.0809281378893935 166.172105257515 
! Gamma         0.278654613694421 1150.48175717941 0                0                0                0                0.27873371514463 1150.48295266474 
! Port Impedance514.187520049142 0.068382956023342 0                0                0                0                514.185461342135 0.0683946769110604 

73.8                           0.0918987190410545 163.096264114019 0.521679761466897 -62.5815436444595 0.521679761466897 -62.5815436444596 0.0917743494264091 162.930269506132 
! Gamma         0.278326465731382 1153.29446327009 0                0                0                0                0.278405713826785 1153.29565621131 
! Port Impedance513.629436204951 0.0678945355116588 0                0                0                0                513.627381903934 0.0679064597222772 

