! Touchstone file exported from Circuit Design 2020.2.4
!        File:           F:/ArifRoni/Projects/RXS/RXS8161PLA/Electric/04_Simulation/HalfModel_CPW.aedt
!        Generated:      5:08:50  Feb 12, 2021
!        Design:         CPW5_ckt1
!        Project:        HalfModel_CPW
!        Setup:          LinearFrequency
!        Solution:       LinearFrequency
!
! Variables:
!        nonRFDIE = 1000000ohm
!        nonRFPCB = 10ohm
!
# GHZ S MA R 50.000000
! Terminal data exported
! Port[1] = DIE_RX1
! Port[2] = PCB_RX1
72                             0.478427196574993 -123.570131593379 0.785338486223519 -152.652893049183 0.785338486223518 -152.652893049183 0.461772206799974 -11.6004048516551 
72.1                           0.480999903475938 -123.625470105237 0.782969895555852 -152.97217662746 0.782969895555851 -152.97217662746 0.46540443723883 -12.1375732471464 
72.2                           0.483570237300127 -123.680545628175 0.780604924228234 -153.291458254066 0.780604924228233 -153.291458254066 0.469034981553392 -12.6735242144994 
72.3                           0.486137878127128 -123.735303323552 0.778243350577292 -153.610704826998 0.778243350577293 -153.610704826998 0.472663808273512 -13.2083872860784 
72.4                           0.488702485665324 -123.789598944931 0.775885515658224 -153.929870796379 0.775885515658223 -153.929870796379 0.476290769108544 -13.7422357679776 
72.5                           0.49126385467373 -123.843244720955 0.77353204761138 -154.248916264059 0.77353204761138 -154.248916264059 0.479915831148279 -14.2751059455244 
72.6                           0.493687734851009 -123.907144150081 0.770993309285057 -154.553893793611 0.770993309285057 -154.553893793611 0.483502858931227 -14.7981542067251 
72.7                           0.496108430052645 -123.970185829057 0.768458605420108 -154.858700740969 0.768458605420109 -154.858700740969 0.487089250389485 -15.3204386476168 
72.8                           0.498526876682131 -124.032294247709 0.765928357133261 -155.163363056925 0.765928357133262 -155.163363056925 0.490675326753075 -15.8419617933357 
72.9                           0.500944296535808 -124.093424461549 0.763402858689706 -155.46792391763 0.763402858689708 -155.46792391763 0.494261575801244 -16.3627349407158 
73                             0.503362097711825 -124.15355857633 0.760882295953472 -155.772436699187 0.760882295953473 -155.772436699187 0.497848555195642 -16.882777444184 
73.1                           0.505648055163925 -124.218227024927 0.7582267123329  -156.062421753096 0.7582267123329  -156.062421753096 0.501370469961196 -17.385468639239 
73.2                           0.507938088834791 -124.28209504412 0.755575850493563 -156.352564111771 0.755575850493563 -156.352564111771 0.504894884604291 -17.8874870048374 
73.3                           0.510233284062009 -124.345241633442 0.752929251720668 -156.642917982908 0.752929251720667 -156.642917982908 0.508422472890525 -18.3888966694611 
73.4                           0.512534416993343 -124.40775824087 0.750286375341859 -156.933519276531 0.750286375341858 -156.933519276531 0.51195371013741 -18.8897711977876 
73.5                           0.514842023593379 -124.469748418543 0.747646601911234 -157.224392125863 0.747646601911232 -157.224392125863 0.515488964663573 -19.3901912940873 
73.6                           0.517029258876472 -124.529455491133 0.744914246856676 -157.499918218306 0.744914246856674 -157.499918218306 0.518939442001574 -19.8694634046855 
73.7                           0.519223210702432 -124.589024136798 0.742181735568639 -157.775770129465 0.742181735568639 -157.775770129465 0.522395544658282 -20.3486260050598 
73.8                           0.521423800189759 -124.648561386208 0.739448341114277 -158.051935464356 0.739448341114277 -158.051935464356 0.525857222567182 -20.8277703115111 
73.9                           0.523630929969726 -124.708157726081 0.736713448900453 -158.328398218671 0.736713448900454 -158.328398218671 0.529324337692306 -21.3069771222663 
74                             0.525844433367326 -124.767882953724 0.733976568845293 -158.605134132985 0.733976568845295 -158.605134132985 0.532796627184309 -21.7863179095109 
74.1                           0.527974372954432 -124.81823587193 0.731190953114288 -158.865582719827 0.73119095311429 -158.865582719827 0.536160305277742 -22.2428645758651 
74.2                           0.530108238224678 -124.868948775687 0.72840073183243 -159.126120494168 0.728400731832431 -159.126120494169 0.539527930701626 -22.6998974933468 
74.3                           0.532245391922793 -124.920027217302 0.72560586015818 -159.386686624098 0.725605860158181 -159.386686624098 0.542898821546705 -23.1574470022238 
74.4                           0.534385252135827 -124.971475008102 0.722806376899703 -159.647224151672 0.722806376899703 -159.647224151672 0.546272311640805 -23.6155317828745 
74.5                           0.536527380764863 -125.023294697571 0.720002447723258 -159.907685029474 0.720002447723257 -159.907685029474 0.549647749134426 -24.074154149574 
74.6                           0.538661502941495 -125.058968322459 0.717203950350094 -160.151031834904 0.717203950350093 -160.151031834904 0.552885474923674 -24.5091133142765 
74.7                           0.540795071493347 -125.094941129229 0.714401062397714 -160.39403681277 0.714401062397713 -160.39403681277 0.556122491969274 -24.9446913595797 
74.8                           0.542928116706251 -125.1311736384  0.711594530855254 -160.636673316511 0.711594530855253 -160.636673316511 0.559358171865988 -25.3808343128466 
74.9                           0.545060641532275 -125.167613134919 0.708785106727926 -160.878913564382 0.708785106727925 -160.878913564382 0.562591945163592 -25.8174911356956 
75                             0.547192517152879 -125.20419117103 0.705973467866482 -161.120720441119 0.705973467866481 -161.120720441119 0.56582332003293 -26.254626228527 
75.1                           0.549455496573303 -125.220894505922 0.703236330858954 -161.346201934167 0.703236330858953 -161.346201934167 0.568892995698684 -26.6670961020636 
75.2                           0.551717689153162 -125.237471410055 0.700499064000749 -161.571067969731 0.700499064000748 -161.571067969731 0.571958955047942 -27.0799524274295 
75.3                           0.553979547509708 -125.253889861046 0.697762421637763 -161.795325318557 0.697762421637762 -161.795325318557 0.575021010544601 -27.4931315666054 
75.4                           0.556241670831789 -125.270119007399 0.695027221372081 -162.018985110891 0.695027221372081 -162.018985110891 0.578078920300314 -27.9065739966253 
75.5                           0.558504868124112 -125.286125981186 0.692294422902398 -162.242062210666 0.692294422902397 -162.242062210666 0.581132312001203 -28.3202226149487 
75.6                           0.561096345474609 -125.288829644581 0.689696959836952 -162.453085387666 0.689696959836952 -162.453085387666 0.584021275148258 -28.7089682873572 
75.7                           0.563691771701235 -125.291198760447 0.68710512746327 -162.663466075352 0.68710512746327 -162.663466075352 0.586904496397999 -29.0978566457437 
75.8                           0.566292386562195 -125.293238458306 0.684520080247911 -162.873237504968 0.68452008024791 -162.873237504968 0.589781506244996 -29.4868460020533 
75.9                           0.568899193731808 -125.295011055384 0.681942573693975 -163.08245938345 0.681942573693974 -163.08245938345 0.592652197869043 -29.8758868639766 
76                             0.571512656811396 -125.296641996457 0.679372690939529 -163.291215261292 0.679372690939529 -163.291215261292 0.595517061481366 -30.2649301289257 
76.1                           0.574614502768169 -125.305442176896 0.676965989532262 -163.494332449142 0.676965989532261 -163.494332449142 0.598220934925765 -30.631287993696 
76.2                           0.57772747008936 -125.314415733034 0.674571065561744 -163.697211753149 0.674571065561745 -163.697211753149 0.600917465787282 -30.9974561838808 
76.3                           0.580851735016747 -125.32374859265 0.672187873176716 -163.899993455221 0.672187873176717 -163.899993455221 0.603607024825678 -31.3633634737822 
76.4                           0.583987238342152 -125.333603197629 0.669816269217509 -164.10280162387 0.66981626921751 -164.10280162387 0.606289922261866 -31.728957630356 
76.5                           0.587133783024965 -125.344109076067 0.667456127290112 -164.305738523814 0.667456127290113 -164.305738523814 0.608966294903418 -32.0942080836261 
76.6                           0.590779919532731 -125.389248337424 0.665254693450711 -164.511057396413 0.665254693450712 -164.511057396413 0.611473396524604 -32.4392287297326 
76.7                           0.594434940292737 -125.435682969133 0.663064108335086 -164.717028973496 0.663064108335085 -164.717028973496 0.613975251248001 -32.7836308544579 
76.8                           0.598097371550378 -125.483407514233 0.660883857203742 -164.923705443144 0.660883857203741 -164.923705443144 0.616471609614459 -33.1274420354481 
76.9                           0.60176557549837 -125.532486417013 0.658712855356115 -165.131196492617 0.658712855356114 -165.131196492617 0.618962818730491 -33.4706335990117 
77                             0.605437318897509 -125.583065589098 0.656549030928253 -165.339672915992 0.65654903092825 -165.339672915992 0.621450242655533 -33.8131188013872 
77.1                           0.609450473201195 -125.68851801415 0.654485509017974 -165.558928318073 0.654485509017972 -165.558928318073 0.623769290248636 -34.1369747651223 
77.2                           0.613460336767049 -125.795403317923 0.652422572600268 -165.779480413628 0.652422572600266 -165.779480413628 0.626089024817678 -34.4600459170276 
77.3                           0.617464928918173 -125.903607929824 0.650358525915341 -166.001336101045 0.65035852591534 -166.001336101045 0.628410097107197 -34.7823402129161 
77.4                           0.621462278673059 -126.012984968214 0.64829167328451 -166.224460942089 0.648291673284508 -166.224460942089 0.630733130643043 -35.1038921331913 
77.5                           0.625450527415216 -126.123351872421 0.646220426303725 -166.448774907872 0.646220426303724 -166.448774907872 0.633058648271526 -35.4247673857038 
77.6                           0.629534405200129 -126.297764942564 0.644136928158037 -166.688335787941 0.644136928158036 -166.688335787941 0.635238124528503 -35.7293539634149 
77.7                           0.633606185315906 -126.472820543533 0.642041919172028 -166.928936183549 0.642041919172027 -166.928936183549 0.637424539212737 -36.0334778642346 
77.8                           0.63766474400367 -126.648134688417 0.63993451066662 -167.170268726459 0.63993451066662 -167.170268726459 0.639618261162171 -36.3373790491325 
77.9                           0.641710050840369 -126.823444430825 0.637814692951019 -167.412144307078 0.637814692951019 -167.412144307078 0.641819077258403 -36.6411496081036 
78                             0.645742775363068 -126.998630726596 0.635682994714643 -167.654523180289 0.635682994714643 -167.654523180289 0.644026431555993 -36.9446988926542 
78.1                           0.649550780864744 -127.232798674203 0.633434907717071 -167.909234606304 0.633434907717071 -167.909234606304 0.646115270546878 -37.2370472673446 
78.2                           0.653345954975684 -127.466443861175 0.631173008705148 -168.163798733244 0.631173008705148 -168.163798733244 0.648211210664948 -37.5295783478197 
78.3                           0.657130868512574 -127.699478897069 0.628898485290226 -168.418167041732 0.628898485290226 -168.418167041732 0.650313750620207 -37.8222176868533 
78.4                           0.66090808903859 -127.931788945705 0.626612737268396 -168.672223089612 0.626612737268395 -168.672223089612 0.652422324490249 -38.1149814142991 
78.5                           0.664680334487016 -128.163239622026 0.624317617429331 -168.925785631795 0.624317617429331 -168.925785631796 0.65453601768277 -38.4079854900957 
78.6                           0.667974109313222 -128.436939003972 0.621843117310814 -169.189202411108 0.621843117310813 -169.189202411108 0.656549539072888 -38.694128466107 
78.7                           0.671268233400984 -128.709974286894 0.61936291383076 -169.451882886169 0.61936291383076 -169.451882886169 0.658565651224039 -38.9807233709554 
78.8                           0.674564246876147 -128.982434445634 0.616878147371076 -169.713728807523 0.616878147371076 -169.713728807523 0.660584459400219 -39.2678759959207 
78.9                           0.677863635567775 -129.254456997485 0.614390435694399 -169.974742968032 0.614390435694399 -169.974742968032 0.662605352354233 -39.5555752671108 
79                             0.681167763975653 -129.526214219291 0.611901579415444 -170.235030459932 0.611901579415444 -170.235030459932 0.664627282551214 -39.8436730528415 
79.1                           0.683810636980413 -129.809347800514 0.609128786972936 -170.493215257972 0.609128786972937 -170.493215257972 0.666599442218028 -40.1336566457891 
79.2                           0.686454872066369 -130.09260220555 0.606357613949197 -170.750767150093 0.606357613949198 -170.750767150093 0.668569364049135 -40.4241503522057 
79.3                           0.689100581996252 -130.376082896629 0.603589280093987 -171.007776208273 0.603589280093987 -171.007776208273 0.670536553449031 -40.7150763613522 
79.4                           0.691747700973782 -130.659895400335 0.600824826851844 -171.264332021435 0.600824826851844 -171.264332021435 0.672500774305813 -41.0063884807358 
79.5                           0.694395828870837 -130.944152114859 0.598065083169772 -171.520526434049 0.598065083169772 -171.520526434048 0.674461962060381 -41.2980801888347 
79.6                           0.696633442813221 -131.216400420095 0.595132038991628 -171.758812274038 0.595132038991628 -171.758812274038 0.676296451866199 -41.6026587358838 
79.7                           0.69885964751398 -131.48879209268 0.592200643625402 -171.996991484347 0.592200643625402 -171.996991484347 0.678125208804708 -41.9073822208341 
79.8                           0.701074172287613 -131.761254240369 0.589270358538033 -172.23514311379 0.589270358538033 -172.23514311379 0.679949915428093 -42.212184675749 
79.9                           0.703277167294431 -132.033716443987 0.586341160736312 -172.473336842672 0.586341160736311 -172.473336842672 0.681770811578384 -42.5170409799058 
80                             0.705468989686045 -132.306111800258 0.583413405749746 -172.711627416234 0.583413405749746 -172.711627416234 0.683586440832659 -42.8219423529072 
80.1                           0.707405175014918 -132.573555265769 0.580421139764457 -172.932203010414 0.580421139764456 -172.932203010414 0.68518512781704 -43.1401771419553 
80.2                           0.70932966878416 -132.839825333062 0.577425926341031 -173.15269760751 0.577425926341031 -173.15269760751 0.686778654254693 -43.4582683395721 
80.3                           0.711245437825755 -133.104884428693 0.574428121540462 -173.373051045679 0.574428121540462 -173.373051045679 0.688365642233479 -43.7761876561171 
80.4                           0.713155232758926 -133.368763330323 0.571427651183608 -173.593213075028 0.571427651183607 -173.593213075028 0.689946067812048 -44.0938929565076 
80.5                           0.715061451959138 -133.631563005392 0.568423954232681 -173.813155597508 0.568423954232681 -173.813155597508 0.691521543484295 -44.4113636054961 
80.6                           0.716687880699319 -133.89052289874 0.565397454712237 -174.015997807427 0.565397454712237 -174.015997807427 0.69284775605533 -44.739905910866 
80.7                           0.718319973933675 -134.148265651196 0.562366537316805 -174.21831685505 0.562366537316804 -174.21831685505 0.694168644102601 -45.0681225385324 
80.8                           0.719959701371326 -134.40504833688 0.55933139952623 -174.420063023941 0.55933139952623 -174.420063023941 0.695485699072032 -45.3959150477737 
80.9                           0.721608122713615 -134.661138402246 0.55629251995133 -174.621136265757 0.55629251995133 -174.621136265757 0.696799226194295 -45.7232737872368 
81                             0.723265214635088 -134.916795907364 0.553250657943132 -174.821368288763 0.553250657943132 -174.821368288763 0.698107927312761 -46.0502726554306 
81.1                           0.72465533224849 -135.163559565136 0.550226937787513 -175.004520611526 0.550226937787513 -175.004520611526 0.699189748096405 -46.3861942677098 
81.2                           0.726053257404935 -135.410385491132 0.547201602924632 -175.186619417432 0.547201602924632 -175.186619417432 0.700266677463785 -46.7215959735729 
81.3                           0.727456692122272 -135.657388190199 0.544176319800872 -175.36741499566 0.544176319800872 -175.36741499566 0.701334969308455 -47.0565575417117 
81.4                           0.728863265113409 -135.904665843936 0.541152498874353 -175.546798844964 0.541152498874353 -175.546798844964 0.702394245643279 -47.3910372155374 
81.5                           0.730270865971493 -136.15230179035 0.538131172044066 -175.724845627862 0.538131172044065 -175.724845627862 0.703448069375705 -47.7248964355648 
81.6                           0.731474455203774 -136.387068959598 0.535169620826524 -175.889540546486 0.535169620826524 -175.889540546486 0.7043535241647  -48.0686467466979 
81.7                           0.73267402184934 -136.622056136197 0.532215314110706 -176.052734747534 0.532215314110706 -176.052734747534 0.705254555117853 -48.4117028884852 
81.8                           0.733868282795355 -136.857155044208 0.529268382285485 -176.214346190639 0.529268382285485 -176.214346190639 0.706151569112498 -48.7539085111974 
81.9                           0.735056294389199 -137.092252438336 0.526328141281128 -176.374433468206 0.526328141281129 -176.374433468206 0.707043778805739 -49.0951057132526 
82                             0.736237475062278 -137.327241985123 0.523393503388806 -176.533204023445 0.523393503388807 -176.533204023445 0.707929192436094 -49.4354066715234 
! Noise Data
