!Keysight Technologies,N5242A,MY56023178,A.10.60.03
!Date: Tuesday, August 25, 2020 09:26:59
!Correction: S11(Full 2 Port(1,2))
!S21(Full 2 Port(1,2))
!S12(Full 2 Port(1,2))
!S22(Full 2 Port(1,2))
!S2P File: Measurements: S11, S21, S12, S22:
# Hz S  dB   R 50
 60000000000 -2.120884e+01 -3.376336e+01 -3.278173e+00 7.305001e+01 -3.263341e+00 7.175097e+01 -2.154219e+01 -5.975255e+01
 60015000000 -2.136012e+01 -3.626054e+01 -3.282920e+00 7.274894e+01 -3.284052e+00 7.172134e+01 -2.156736e+01 -5.964947e+01
 60030000000 -2.137183e+01 -3.345453e+01 -3.284379e+00 7.246983e+01 -3.251690e+00 7.159449e+01 -2.158028e+01 -5.931704e+01
 60045000000 -2.153314e+01 -3.258669e+01 -3.278343e+00 7.224572e+01 -3.270383e+00 7.146705e+01 -2.163800e+01 -5.907567e+01
 60060000000 -2.155626e+01 -3.334114e+01 -3.267847e+00 7.211869e+01 -3.248234e+00 7.131748e+01 -2.167676e+01 -5.865193e+01
 60075000000 -2.126787e+01 -3.307466e+01 -3.254736e+00 7.171860e+01 -3.264221e+00 7.115592e+01 -2.171268e+01 -5.838420e+01
 60090000000 -2.142609e+01 -3.248483e+01 -3.237176e+00 7.146875e+01 -3.241654e+00 7.095334e+01 -2.173595e+01 -5.794292e+01
 60105000000 -2.141824e+01 -3.265343e+01 -3.219606e+00 7.127782e+01 -3.265991e+00 7.068229e+01 -2.175379e+01 -5.749667e+01
 60120000000 -2.131695e+01 -3.239883e+01 -3.203906e+00 7.107582e+01 -3.242088e+00 7.037966e+01 -2.177484e+01 -5.717126e+01
 60135000000 -2.111060e+01 -3.210056e+01 -3.187530e+00 7.083876e+01 -3.246576e+00 7.002998e+01 -2.179474e+01 -5.676263e+01
 60150000000 -2.106354e+01 -3.209587e+01 -3.183517e+00 7.055871e+01 -3.247785e+00 6.968575e+01 -2.181268e+01 -5.663034e+01
 60165000000 -2.124729e+01 -3.084835e+01 -3.182152e+00 7.010772e+01 -3.255296e+00 6.935842e+01 -2.183635e+01 -5.635120e+01
 60180000000 -2.124824e+01 -3.216909e+01 -3.189130e+00 7.004410e+01 -3.253546e+00 6.902830e+01 -2.187848e+01 -5.604790e+01
 60195000000 -2.155440e+01 -3.148876e+01 -3.199968e+00 6.981522e+01 -3.240798e+00 6.872746e+01 -2.192162e+01 -5.564869e+01
 60210000000 -2.157669e+01 -3.039457e+01 -3.211380e+00 6.968001e+01 -3.244279e+00 6.842981e+01 -2.197570e+01 -5.532006e+01
 60225000000 -2.125008e+01 -3.170297e+01 -3.232780e+00 6.925497e+01 -3.245186e+00 6.818593e+01 -2.201609e+01 -5.513803e+01
 60240000000 -2.144065e+01 -3.052232e+01 -3.248577e+00 6.899925e+01 -3.234529e+00 6.796333e+01 -2.206315e+01 -5.475859e+01
 60255000000 -2.135802e+01 -3.059714e+01 -3.267540e+00 6.866412e+01 -3.212155e+00 6.779361e+01 -2.210566e+01 -5.432073e+01
 60270000000 -2.127219e+01 -3.056628e+01 -3.273294e+00 6.852188e+01 -3.226133e+00 6.767921e+01 -2.217566e+01 -5.384232e+01
 60285000000 -2.131004e+01 -3.008268e+01 -3.277155e+00 6.824262e+01 -3.246349e+00 6.756475e+01 -2.224002e+01 -5.330368e+01
 60300000000 -2.139078e+01 -2.995025e+01 -3.272294e+00 6.794294e+01 -3.229740e+00 6.746596e+01 -2.225836e+01 -5.280612e+01
 60315000000 -2.147041e+01 -3.031731e+01 -3.261707e+00 6.756785e+01 -3.247655e+00 6.734216e+01 -2.231121e+01 -5.237766e+01
 60330000000 -2.135357e+01 -3.040192e+01 -3.245137e+00 6.736883e+01 -3.228832e+00 6.721072e+01 -2.233008e+01 -5.193774e+01
 60345000000 -2.135630e+01 -2.986655e+01 -3.226382e+00 6.722814e+01 -3.248530e+00 6.704154e+01 -2.236392e+01 -5.136353e+01
 60360000000 -2.182656e+01 -2.886783e+01 -3.207139e+00 6.694656e+01 -3.218725e+00 6.682275e+01 -2.241436e+01 -5.084540e+01
 60375000000 -2.144239e+01 -2.715911e+01 -3.182062e+00 6.671150e+01 -3.244676e+00 6.659477e+01 -2.242828e+01 -5.018815e+01
 60390000000 -2.126309e+01 -2.774351e+01 -3.160274e+00 6.651019e+01 -3.224586e+00 6.630182e+01 -2.247495e+01 -4.985406e+01
 60405000000 -2.137715e+01 -2.708309e+01 -3.140758e+00 6.631233e+01 -3.227916e+00 6.594595e+01 -2.249468e+01 -4.939762e+01
 60420000000 -2.150874e+01 -2.844010e+01 -3.124735e+00 6.587116e+01 -3.219969e+00 6.555124e+01 -2.249404e+01 -4.879715e+01
 60435000000 -2.142494e+01 -2.560343e+01 -3.104489e+00 6.583587e+01 -3.187979e+00 6.520386e+01 -2.250597e+01 -4.859235e+01
 60450000000 -2.137041e+01 -2.804485e+01 -3.096273e+00 6.539403e+01 -3.224401e+00 6.476493e+01 -2.250684e+01 -4.814801e+01
 60465000000 -2.128946e+01 -2.590918e+01 -3.092813e+00 6.508822e+01 -3.208160e+00 6.440128e+01 -2.253886e+01 -4.769162e+01
 60480000000 -2.125942e+01 -2.557766e+01 -3.100576e+00 6.486856e+01 -3.194045e+00 6.407804e+01 -2.259135e+01 -4.734981e+01
 60495000000 -2.145643e+01 -2.677886e+01 -3.116582e+00 6.447783e+01 -3.182599e+00 6.374216e+01 -2.262209e+01 -4.670251e+01
 60510000000 -2.118651e+01 -2.410768e+01 -3.127166e+00 6.427422e+01 -3.195289e+00 6.342600e+01 -2.265706e+01 -4.631420e+01
 60525000000 -2.130778e+01 -2.621038e+01 -3.143178e+00 6.404756e+01 -3.206231e+00 6.318590e+01 -2.270197e+01 -4.579584e+01
 60540000000 -2.137387e+01 -2.562063e+01 -3.156005e+00 6.380272e+01 -3.213449e+00 6.296185e+01 -2.274236e+01 -4.526817e+01
 60555000000 -2.126347e+01 -2.412593e+01 -3.173543e+00 6.356054e+01 -3.211207e+00 6.280148e+01 -2.275972e+01 -4.480070e+01
 60570000000 -2.140810e+01 -2.560495e+01 -3.182537e+00 6.334069e+01 -3.228468e+00 6.264966e+01 -2.282197e+01 -4.428688e+01
 60585000000 -2.162010e+01 -2.416911e+01 -3.178282e+00 6.307050e+01 -3.216527e+00 6.250013e+01 -2.285227e+01 -4.370839e+01
 60600000000 -2.121692e+01 -2.439404e+01 -3.169981e+00 6.296014e+01 -3.223987e+00 6.236752e+01 -2.288429e+01 -4.311189e+01
 60615000000 -2.135442e+01 -2.557904e+01 -3.158885e+00 6.268001e+01 -3.203090e+00 6.218823e+01 -2.290983e+01 -4.244965e+01
 60630000000 -2.158686e+01 -2.325990e+01 -3.145937e+00 6.229862e+01 -3.214042e+00 6.197491e+01 -2.290423e+01 -4.177255e+01
 60645000000 -2.140703e+01 -2.332247e+01 -3.129591e+00 6.230485e+01 -3.195463e+00 6.171846e+01 -2.289612e+01 -4.137912e+01
 60660000000 -2.135196e+01 -2.240422e+01 -3.113002e+00 6.200622e+01 -3.191130e+00 6.141435e+01 -2.288479e+01 -4.095082e+01
 60675000000 -2.135853e+01 -2.049126e+01 -3.093837e+00 6.161239e+01 -3.184297e+00 6.106092e+01 -2.287979e+01 -4.033281e+01
 60690000000 -2.093721e+01 -2.104866e+01 -3.071617e+00 6.131526e+01 -3.180886e+00 6.062821e+01 -2.287624e+01 -3.976755e+01
 60705000000 -2.130578e+01 -2.033278e+01 -3.059383e+00 6.105844e+01 -3.200265e+00 6.022891e+01 -2.283668e+01 -3.934868e+01
 60720000000 -2.124222e+01 -1.899546e+01 -3.044424e+00 6.065982e+01 -3.182462e+00 5.977913e+01 -2.280754e+01 -3.875271e+01
 60735000000 -2.122502e+01 -1.925739e+01 -3.041596e+00 6.048581e+01 -3.164691e+00 5.938662e+01 -2.280588e+01 -3.820047e+01
 60750000000 -2.094424e+01 -1.774734e+01 -3.039156e+00 6.018835e+01 -3.162005e+00 5.896410e+01 -2.276424e+01 -3.782451e+01
 60765000000 -2.105106e+01 -2.132819e+01 -3.061295e+00 5.989893e+01 -3.174740e+00 5.863003e+01 -2.274671e+01 -3.757805e+01
 60780000000 -2.071488e+01 -2.086370e+01 -3.075534e+00 5.945510e+01 -3.190236e+00 5.825933e+01 -2.269388e+01 -3.740039e+01
 60795000000 -2.100141e+01 -2.110009e+01 -3.097568e+00 5.926081e+01 -3.183317e+00 5.803199e+01 -2.272008e+01 -3.703215e+01
 60810000000 -2.098256e+01 -2.030593e+01 -3.119820e+00 5.909988e+01 -3.191849e+00 5.779780e+01 -2.279374e+01 -3.665299e+01
 60825000000 -2.091760e+01 -2.068686e+01 -3.144875e+00 5.879522e+01 -3.203822e+00 5.754582e+01 -2.282548e+01 -3.621144e+01
 60840000000 -2.107838e+01 -2.041953e+01 -3.161105e+00 5.857348e+01 -3.198159e+00 5.731237e+01 -2.282431e+01 -3.560427e+01
 60855000000 -2.110170e+01 -1.818950e+01 -3.173257e+00 5.832617e+01 -3.212085e+00 5.710114e+01 -2.283608e+01 -3.526467e+01
 60870000000 -2.101197e+01 -1.852834e+01 -3.188446e+00 5.818395e+01 -3.200650e+00 5.696268e+01 -2.283714e+01 -3.458272e+01
 60885000000 -2.101438e+01 -1.843182e+01 -3.192763e+00 5.792224e+01 -3.190225e+00 5.679189e+01 -2.280339e+01 -3.416081e+01
 60900000000 -2.137639e+01 -1.743793e+01 -3.186516e+00 5.761767e+01 -3.178471e+00 5.663478e+01 -2.278023e+01 -3.384744e+01
 60915000000 -2.111735e+01 -1.662497e+01 -3.184966e+00 5.728813e+01 -3.171775e+00 5.648297e+01 -2.278011e+01 -3.353213e+01
 60930000000 -2.088919e+01 -1.549874e+01 -3.178563e+00 5.706695e+01 -3.171187e+00 5.631084e+01 -2.278077e+01 -3.312873e+01
 60945000000 -2.082801e+01 -1.595006e+01 -3.164181e+00 5.673113e+01 -3.184668e+00 5.609588e+01 -2.275483e+01 -3.285833e+01
 60960000000 -2.095406e+01 -1.407125e+01 -3.150898e+00 5.639208e+01 -3.167167e+00 5.583038e+01 -2.272315e+01 -3.252386e+01
 60975000000 -2.081782e+01 -1.604507e+01 -3.141762e+00 5.628186e+01 -3.166862e+00 5.549051e+01 -2.268379e+01 -3.212480e+01
 60990000000 -2.092418e+01 -1.611447e+01 -3.134821e+00 5.598806e+01 -3.167615e+00 5.511768e+01 -2.264625e+01 -3.179697e+01
 61005000000 -2.091082e+01 -1.541028e+01 -3.132395e+00 5.559336e+01 -3.179335e+00 5.477552e+01 -2.261273e+01 -3.150425e+01
 61020000000 -2.077639e+01 -1.430199e+01 -3.132178e+00 5.528386e+01 -3.181648e+00 5.443934e+01 -2.258348e+01 -3.118490e+01
 61035000000 -2.042892e+01 -1.671403e+01 -3.140949e+00 5.500096e+01 -3.183003e+00 5.408982e+01 -2.256643e+01 -3.078751e+01
 61050000000 -2.061093e+01 -1.476964e+01 -3.146404e+00 5.480111e+01 -3.159803e+00 5.377704e+01 -2.251816e+01 -3.029927e+01
 61065000000 -2.048937e+01 -1.353642e+01 -3.162639e+00 5.458419e+01 -3.163351e+00 5.343402e+01 -2.247806e+01 -2.995101e+01
 61080000000 -2.070320e+01 -1.605658e+01 -3.186992e+00 5.412801e+01 -3.154556e+00 5.323297e+01 -2.243222e+01 -2.970278e+01
 61095000000 -2.074144e+01 -1.519240e+01 -3.207793e+00 5.401029e+01 -3.202152e+00 5.300907e+01 -2.247106e+01 -2.932205e+01
 61110000000 -2.077598e+01 -1.412942e+01 -3.226886e+00 5.388451e+01 -3.188247e+00 5.282864e+01 -2.245532e+01 -2.868594e+01
 61125000000 -2.067877e+01 -1.327647e+01 -3.245311e+00 5.368509e+01 -3.168752e+00 5.269584e+01 -2.242384e+01 -2.834566e+01
 61140000000 -2.070953e+01 -1.376589e+01 -3.251153e+00 5.331785e+01 -3.184154e+00 5.257862e+01 -2.243071e+01 -2.824728e+01
 61155000000 -2.054431e+01 -1.332964e+01 -3.256356e+00 5.315637e+01 -3.192211e+00 5.244073e+01 -2.238967e+01 -2.796180e+01
 61170000000 -2.058836e+01 -1.272578e+01 -3.246315e+00 5.291442e+01 -3.224445e+00 5.229066e+01 -2.235628e+01 -2.737990e+01
 61185000000 -2.047860e+01 -1.224049e+01 -3.230784e+00 5.276221e+01 -3.212501e+00 5.215889e+01 -2.228412e+01 -2.686429e+01
 61200000000 -2.055535e+01 -1.154932e+01 -3.213915e+00 5.243736e+01 -3.185171e+00 5.198024e+01 -2.221203e+01 -2.658602e+01
 61215000000 -2.055901e+01 -1.219099e+01 -3.198319e+00 5.203427e+01 -3.194793e+00 5.184361e+01 -2.214578e+01 -2.626544e+01
 61230000000 -2.041309e+01 -1.114705e+01 -3.184087e+00 5.165384e+01 -3.190313e+00 5.171913e+01 -2.209834e+01 -2.588257e+01
 61245000000 -2.025907e+01 -1.280695e+01 -3.163214e+00 5.161669e+01 -3.188205e+00 5.148335e+01 -2.202832e+01 -2.573740e+01
 61260000000 -2.022934e+01 -1.238991e+01 -3.144530e+00 5.128736e+01 -3.191931e+00 5.118657e+01 -2.199768e+01 -2.535875e+01
 61275000000 -2.022507e+01 -1.073683e+01 -3.125252e+00 5.100173e+01 -3.171065e+00 5.085877e+01 -2.193067e+01 -2.502111e+01
 61290000000 -2.011025e+01 -1.288703e+01 -3.108075e+00 5.084681e+01 -3.172574e+00 5.045778e+01 -2.187466e+01 -2.487695e+01
 61305000000 -2.028073e+01 -1.184207e+01 -3.099092e+00 5.053385e+01 -3.182563e+00 5.011028e+01 -2.181478e+01 -2.458000e+01
 61320000000 -1.986496e+01 -1.053366e+01 -3.086848e+00 5.025289e+01 -3.197918e+00 4.972319e+01 -2.177835e+01 -2.426595e+01
 61335000000 -2.005826e+01 -1.070747e+01 -3.088951e+00 5.007784e+01 -3.181762e+00 4.936135e+01 -2.173685e+01 -2.383836e+01
 61350000000 -1.980014e+01 -9.800013e+00 -3.093732e+00 4.976501e+01 -3.193352e+00 4.901570e+01 -2.168424e+01 -2.351115e+01
 61365000000 -2.001443e+01 -1.136374e+01 -3.107875e+00 4.949941e+01 -3.195245e+00 4.875092e+01 -2.163949e+01 -2.330014e+01
 61380000000 -1.969164e+01 -1.146062e+01 -3.119158e+00 4.920647e+01 -3.177952e+00 4.842601e+01 -2.158419e+01 -2.288869e+01
 61395000000 -1.973229e+01 -1.076629e+01 -3.136948e+00 4.903149e+01 -3.193836e+00 4.812579e+01 -2.154850e+01 -2.270740e+01
 61410000000 -1.975172e+01 -1.125770e+01 -3.155053e+00 4.863998e+01 -3.171005e+00 4.790626e+01 -2.151654e+01 -2.236538e+01
 61425000000 -1.975269e+01 -1.057689e+01 -3.154812e+00 4.833830e+01 -3.182943e+00 4.777380e+01 -2.148398e+01 -2.189793e+01
 61440000000 -1.958089e+01 -1.104932e+01 -3.159327e+00 4.822047e+01 -3.183520e+00 4.751147e+01 -2.144752e+01 -2.142347e+01
 61455000000 -1.954120e+01 -1.018089e+01 -3.169798e+00 4.804699e+01 -3.187887e+00 4.736240e+01 -2.140639e+01 -2.103913e+01
 61470000000 -1.949173e+01 -1.045326e+01 -3.165888e+00 4.775458e+01 -3.192373e+00 4.720555e+01 -2.137017e+01 -2.070729e+01
 61485000000 -1.948830e+01 -1.132880e+01 -3.158739e+00 4.757368e+01 -3.189029e+00 4.703157e+01 -2.133997e+01 -2.039357e+01
 61500000000 -1.954640e+01 -1.041470e+01 -3.147862e+00 4.743619e+01 -3.188299e+00 4.684224e+01 -2.131352e+01 -2.008822e+01
 61515000000 -1.941746e+01 -9.513580e+00 -3.133801e+00 4.695716e+01 -3.170512e+00 4.665879e+01 -2.125972e+01 -1.978360e+01
 61530000000 -1.937518e+01 -1.047674e+01 -3.118714e+00 4.686237e+01 -3.177340e+00 4.641310e+01 -2.122725e+01 -1.970902e+01
 61545000000 -1.938189e+01 -1.081096e+01 -3.102349e+00 4.646513e+01 -3.180857e+00 4.607546e+01 -2.118024e+01 -1.959331e+01
 61560000000 -1.941502e+01 -1.017481e+01 -3.088061e+00 4.618863e+01 -3.152912e+00 4.566485e+01 -2.113398e+01 -1.936888e+01
 61575000000 -1.948747e+01 -1.052079e+01 -3.073506e+00 4.607542e+01 -3.151161e+00 4.516983e+01 -2.108764e+01 -1.922197e+01
 61590000000 -1.928900e+01 -9.777665e+00 -3.061185e+00 4.568846e+01 -3.163641e+00 4.465690e+01 -2.101900e+01 -1.924922e+01
 61605000000 -1.919115e+01 -9.414812e+00 -3.057439e+00 4.539481e+01 -3.166476e+00 4.422790e+01 -2.096885e+01 -1.904654e+01
 61620000000 -1.927670e+01 -1.031365e+01 -3.070210e+00 4.517843e+01 -3.149256e+00 4.397540e+01 -2.094453e+01 -1.855869e+01
 61635000000 -1.913655e+01 -1.039189e+01 -3.082298e+00 4.487309e+01 -3.152707e+00 4.369101e+01 -2.092770e+01 -1.834611e+01
 61650000000 -1.898543e+01 -1.070781e+01 -3.098214e+00 4.462313e+01 -3.160755e+00 4.330856e+01 -2.091060e+01 -1.839056e+01
 61665000000 -1.903067e+01 -9.182532e+00 -3.104588e+00 4.444089e+01 -3.176928e+00 4.301192e+01 -2.088585e+01 -1.839592e+01
 61680000000 -1.881558e+01 -9.107138e+00 -3.128753e+00 4.413968e+01 -3.170817e+00 4.273663e+01 -2.083499e+01 -1.819548e+01
 61695000000 -1.904445e+01 -9.990602e+00 -3.150379e+00 4.392519e+01 -3.184708e+00 4.250997e+01 -2.082484e+01 -1.804110e+01
 61710000000 -1.900879e+01 -1.020536e+01 -3.172288e+00 4.366201e+01 -3.173376e+00 4.224410e+01 -2.076173e+01 -1.792960e+01
 61725000000 -1.906136e+01 -1.042380e+01 -3.188879e+00 4.339061e+01 -3.170638e+00 4.210985e+01 -2.070267e+01 -1.786094e+01
 61740000000 -1.892874e+01 -1.129117e+01 -3.210284e+00 4.299247e+01 -3.180834e+00 4.200749e+01 -2.066087e+01 -1.782760e+01
 61755000000 -1.885497e+01 -1.120465e+01 -3.216232e+00 4.276182e+01 -3.179883e+00 4.190553e+01 -2.062455e+01 -1.776192e+01
 61770000000 -1.904060e+01 -9.744855e+00 -3.211194e+00 4.266733e+01 -3.193888e+00 4.175674e+01 -2.059364e+01 -1.753444e+01
 61785000000 -1.876615e+01 -9.413971e+00 -3.209629e+00 4.236891e+01 -3.165374e+00 4.159946e+01 -2.054730e+01 -1.760358e+01
 61800000000 -1.888210e+01 -9.484379e+00 -3.199930e+00 4.214144e+01 -3.193552e+00 4.144139e+01 -2.049409e+01 -1.749382e+01
 61815000000 -1.883376e+01 -1.034093e+01 -3.190872e+00 4.190498e+01 -3.168497e+00 4.131748e+01 -2.044515e+01 -1.762059e+01
 61830000000 -1.857890e+01 -9.072997e+00 -3.180673e+00 4.165761e+01 -3.162860e+00 4.114318e+01 -2.038384e+01 -1.769299e+01
 61845000000 -1.876186e+01 -1.027404e+01 -3.167370e+00 4.139702e+01 -3.163912e+00 4.092230e+01 -2.034280e+01 -1.774518e+01
 61860000000 -1.858991e+01 -9.265378e+00 -3.154209e+00 4.115897e+01 -3.160694e+00 4.063665e+01 -2.029363e+01 -1.777159e+01
 61875000000 -1.868611e+01 -9.419088e+00 -3.140960e+00 4.080861e+01 -3.151535e+00 4.035601e+01 -2.026787e+01 -1.783962e+01
 61890000000 -1.858822e+01 -9.792337e+00 -3.132915e+00 4.058068e+01 -3.148309e+00 3.997683e+01 -2.019845e+01 -1.774267e+01
 61905000000 -1.831692e+01 -1.022483e+01 -3.131703e+00 4.033482e+01 -3.144650e+00 3.959541e+01 -2.014083e+01 -1.775256e+01
 61920000000 -1.853951e+01 -9.747335e+00 -3.132199e+00 3.988479e+01 -3.165891e+00 3.934530e+01 -2.010198e+01 -1.790037e+01
 61935000000 -1.847187e+01 -1.067995e+01 -3.125150e+00 3.978537e+01 -3.150456e+00 3.911460e+01 -2.005255e+01 -1.772558e+01
 61950000000 -1.852680e+01 -1.081220e+01 -3.111635e+00 3.948056e+01 -3.169504e+00 3.879639e+01 -1.999780e+01 -1.772588e+01
 61965000000 -1.848679e+01 -1.056833e+01 -3.127213e+00 3.937874e+01 -3.169371e+00 3.832814e+01 -1.993152e+01 -1.770368e+01
 61980000000 -1.843851e+01 -1.175273e+01 -3.168664e+00 3.904822e+01 -3.186607e+00 3.803587e+01 -1.988321e+01 -1.768280e+01
 61995000000 -1.838998e+01 -1.038943e+01 -3.190868e+00 3.881014e+01 -3.163379e+00 3.787407e+01 -1.982273e+01 -1.767220e+01
 62010000000 -1.842184e+01 -1.092185e+01 -3.202567e+00 3.837936e+01 -3.174835e+00 3.772013e+01 -1.980762e+01 -1.752825e+01
 62025000000 -1.834565e+01 -1.126201e+01 -3.209267e+00 3.815702e+01 -3.185581e+00 3.753226e+01 -1.974935e+01 -1.725676e+01
 62040000000 -1.839758e+01 -8.900457e+00 -3.210643e+00 3.796455e+01 -3.170203e+00 3.735385e+01 -1.969254e+01 -1.714485e+01
 62055000000 -1.823069e+01 -1.125272e+01 -3.208771e+00 3.776758e+01 -3.182173e+00 3.728391e+01 -1.961561e+01 -1.696039e+01
 62070000000 -1.821722e+01 -1.040239e+01 -3.201788e+00 3.746017e+01 -3.171538e+00 3.720332e+01 -1.955648e+01 -1.695355e+01
 62085000000 -1.807204e+01 -1.056281e+01 -3.187552e+00 3.730045e+01 -3.181489e+00 3.703330e+01 -1.949078e+01 -1.693603e+01
 62100000000 -1.826275e+01 -1.102040e+01 -3.169443e+00 3.708538e+01 -3.174551e+00 3.679861e+01 -1.943817e+01 -1.692063e+01
 62115000000 -1.792955e+01 -1.143529e+01 -3.152232e+00 3.687224e+01 -3.163419e+00 3.658724e+01 -1.937447e+01 -1.690909e+01
 62130000000 -1.796859e+01 -1.128096e+01 -3.136256e+00 3.663652e+01 -3.163132e+00 3.635538e+01 -1.930441e+01 -1.694674e+01
 62145000000 -1.791645e+01 -1.184812e+01 -3.119924e+00 3.625126e+01 -3.168337e+00 3.607274e+01 -1.923280e+01 -1.691628e+01
 62160000000 -1.814502e+01 -1.205105e+01 -3.103838e+00 3.597224e+01 -3.161910e+00 3.573018e+01 -1.916625e+01 -1.700886e+01
 62175000000 -1.808282e+01 -1.165535e+01 -3.088014e+00 3.577976e+01 -3.148431e+00 3.535634e+01 -1.912476e+01 -1.713365e+01
 62190000000 -1.795993e+01 -1.191678e+01 -3.081113e+00 3.554860e+01 -3.157177e+00 3.496481e+01 -1.908470e+01 -1.721231e+01
 62205000000 -1.785791e+01 -1.137598e+01 -3.075525e+00 3.524172e+01 -3.155729e+00 3.460322e+01 -1.903725e+01 -1.734473e+01
 62220000000 -1.795420e+01 -1.230707e+01 -3.076779e+00 3.495966e+01 -3.151554e+00 3.427584e+01 -1.899766e+01 -1.735871e+01
 62235000000 -1.784494e+01 -1.100917e+01 -3.078843e+00 3.471558e+01 -3.159220e+00 3.393878e+01 -1.895791e+01 -1.743260e+01
 62250000000 -1.782907e+01 -1.239610e+01 -3.091598e+00 3.454970e+01 -3.165077e+00 3.361440e+01 -1.891900e+01 -1.744952e+01
 62265000000 -1.791102e+01 -1.199086e+01 -3.103057e+00 3.426375e+01 -3.134415e+00 3.335475e+01 -1.887815e+01 -1.753694e+01
 62280000000 -1.775098e+01 -1.308697e+01 -3.121082e+00 3.402876e+01 -3.150744e+00 3.308335e+01 -1.886631e+01 -1.751043e+01
 62295000000 -1.789851e+01 -1.288215e+01 -3.135916e+00 3.384337e+01 -3.155856e+00 3.285379e+01 -1.885146e+01 -1.739829e+01
 62310000000 -1.788499e+01 -1.158967e+01 -3.147555e+00 3.348969e+01 -3.140864e+00 3.266846e+01 -1.882779e+01 -1.732371e+01
 62325000000 -1.773480e+01 -1.258409e+01 -3.157273e+00 3.323338e+01 -3.144087e+00 3.253462e+01 -1.880001e+01 -1.717576e+01
 62340000000 -1.777639e+01 -1.335608e+01 -3.163536e+00 3.289295e+01 -3.133236e+00 3.238221e+01 -1.876017e+01 -1.716534e+01
 62355000000 -1.767396e+01 -1.221960e+01 -3.166100e+00 3.255676e+01 -3.126655e+00 3.224920e+01 -1.872208e+01 -1.708077e+01
 62370000000 -1.773473e+01 -1.198675e+01 -3.156382e+00 3.240736e+01 -3.139125e+00 3.209298e+01 -1.868799e+01 -1.698768e+01
 62385000000 -1.771419e+01 -1.238782e+01 -3.149293e+00 3.209357e+01 -3.130136e+00 3.192544e+01 -1.865616e+01 -1.688122e+01
