!Keysight Technologies,N5242A,MY56023178,A.10.60.03
!Date: Tuesday, August 25, 2020 09:26:59
!Correction: S11(Full 2 Port(1,2))
!S21(Full 2 Port(1,2))
!S12(Full 2 Port(1,2))
!S22(Full 2 Port(1,2))
!S2P File: Measurements: S11, S21, S12, S22:
# Hz S  dB   R 50
 60000000000 -1.633091e+01 -5.248705e+01 -4.541138e+00 1.424453e+02 -4.561759e+00 1.427228e+02 -1.412784e+01 -5.423086e+01
 60015000000 -1.629479e+01 -5.312963e+01 -4.552705e+00 1.418515e+02 -4.594281e+00 1.422831e+02 -1.414030e+01 -5.460833e+01
 60030000000 -1.637730e+01 -5.328190e+01 -4.555662e+00 1.411418e+02 -4.563893e+00 1.418022e+02 -1.417122e+01 -5.494434e+01
 60045000000 -1.649678e+01 -5.281896e+01 -4.554230e+00 1.406325e+02 -4.561690e+00 1.412743e+02 -1.419867e+01 -5.532251e+01
 60060000000 -1.654869e+01 -5.380009e+01 -4.546915e+00 1.401042e+02 -4.529988e+00 1.407394e+02 -1.423068e+01 -5.566456e+01
 60075000000 -1.650290e+01 -5.352674e+01 -4.537692e+00 1.394992e+02 -4.562698e+00 1.402050e+02 -1.425173e+01 -5.603841e+01
 60090000000 -1.658626e+01 -5.373062e+01 -4.523365e+00 1.388087e+02 -4.537969e+00 1.396356e+02 -1.428294e+01 -5.633441e+01
 60105000000 -1.657993e+01 -5.400597e+01 -4.510342e+00 1.381985e+02 -4.562884e+00 1.390023e+02 -1.430910e+01 -5.657793e+01
 60120000000 -1.665622e+01 -5.378363e+01 -4.498674e+00 1.376888e+02 -4.560531e+00 1.383668e+02 -1.433374e+01 -5.686584e+01
 60135000000 -1.659461e+01 -5.375989e+01 -4.486289e+00 1.370656e+02 -4.570466e+00 1.376855e+02 -1.435898e+01 -5.709103e+01
 60150000000 -1.662073e+01 -5.349187e+01 -4.482169e+00 1.364122e+02 -4.582320e+00 1.370015e+02 -1.438252e+01 -5.733897e+01
 60165000000 -1.683117e+01 -5.399081e+01 -4.480328e+00 1.355902e+02 -4.569008e+00 1.363542e+02 -1.441405e+01 -5.759560e+01
 60180000000 -1.680467e+01 -5.433686e+01 -4.485563e+00 1.352013e+02 -4.593421e+00 1.356610e+02 -1.442566e+01 -5.782620e+01
 60195000000 -1.690554e+01 -5.469154e+01 -4.497753e+00 1.346348e+02 -4.573762e+00 1.350121e+02 -1.444835e+01 -5.815371e+01
 60210000000 -1.690194e+01 -5.488243e+01 -4.510437e+00 1.339178e+02 -4.596003e+00 1.343824e+02 -1.446728e+01 -5.843374e+01
 60225000000 -1.679708e+01 -5.518174e+01 -4.527136e+00 1.333775e+02 -4.559077e+00 1.337936e+02 -1.449925e+01 -5.878200e+01
 60240000000 -1.694304e+01 -5.552866e+01 -4.544155e+00 1.327639e+02 -4.564466e+00 1.332152e+02 -1.452964e+01 -5.909910e+01
 60255000000 -1.700946e+01 -5.540773e+01 -4.562622e+00 1.321398e+02 -4.577101e+00 1.326892e+02 -1.456052e+01 -5.944076e+01
 60270000000 -1.701284e+01 -5.529501e+01 -4.569452e+00 1.316900e+02 -4.588604e+00 1.322043e+02 -1.460544e+01 -5.978372e+01
 60285000000 -1.709468e+01 -5.567096e+01 -4.576159e+00 1.309466e+02 -4.591743e+00 1.317233e+02 -1.465152e+01 -6.008352e+01
 60300000000 -1.711609e+01 -5.586087e+01 -4.575470e+00 1.303644e+02 -4.579252e+00 1.312503e+02 -1.469524e+01 -6.042063e+01
 60315000000 -1.719791e+01 -5.600431e+01 -4.571145e+00 1.296078e+02 -4.620725e+00 1.307447e+02 -1.473119e+01 -6.083150e+01
 60330000000 -1.724464e+01 -5.633410e+01 -4.560671e+00 1.292074e+02 -4.575724e+00 1.302469e+02 -1.478245e+01 -6.110166e+01
 60345000000 -1.730132e+01 -5.632183e+01 -4.545923e+00 1.286163e+02 -4.611571e+00 1.297245e+02 -1.483422e+01 -6.145767e+01
 60360000000 -1.750877e+01 -5.666961e+01 -4.530902e+00 1.279549e+02 -4.575599e+00 1.291559e+02 -1.488181e+01 -6.177401e+01
 60375000000 -1.743646e+01 -5.654360e+01 -4.510067e+00 1.273088e+02 -4.606450e+00 1.285774e+02 -1.494443e+01 -6.205757e+01
 60390000000 -1.750426e+01 -5.602725e+01 -4.492843e+00 1.268748e+02 -4.581478e+00 1.279705e+02 -1.499261e+01 -6.229350e+01
 60405000000 -1.754989e+01 -5.726054e+01 -4.474499e+00 1.262855e+02 -4.586859e+00 1.272699e+02 -1.505051e+01 -6.256945e+01
 60420000000 -1.760265e+01 -5.703957e+01 -4.457373e+00 1.256097e+02 -4.564280e+00 1.265812e+02 -1.509076e+01 -6.281906e+01
 60435000000 -1.764438e+01 -5.675003e+01 -4.439152e+00 1.250510e+02 -4.544604e+00 1.258857e+02 -1.512532e+01 -6.306145e+01
 60450000000 -1.762270e+01 -5.731296e+01 -4.429417e+00 1.243460e+02 -4.560233e+00 1.251105e+02 -1.517876e+01 -6.324242e+01
 60465000000 -1.768871e+01 -5.702187e+01 -4.427105e+00 1.238039e+02 -4.565242e+00 1.244161e+02 -1.521659e+01 -6.344079e+01
 60480000000 -1.785604e+01 -5.728973e+01 -4.432668e+00 1.230686e+02 -4.545217e+00 1.237632e+02 -1.526008e+01 -6.367218e+01
 60495000000 -1.785295e+01 -5.812021e+01 -4.445117e+00 1.221737e+02 -4.535902e+00 1.230786e+02 -1.532114e+01 -6.387494e+01
 60510000000 -1.799952e+01 -5.711992e+01 -4.452352e+00 1.217304e+02 -4.554595e+00 1.224227e+02 -1.536724e+01 -6.408490e+01
 60525000000 -1.813090e+01 -5.784272e+01 -4.463983e+00 1.212056e+02 -4.562474e+00 1.218241e+02 -1.542324e+01 -6.425449e+01
 60540000000 -1.821306e+01 -5.827842e+01 -4.478627e+00 1.204976e+02 -4.583003e+00 1.212546e+02 -1.547724e+01 -6.439620e+01
 60555000000 -1.825714e+01 -5.740286e+01 -4.498006e+00 1.198989e+02 -4.591359e+00 1.207395e+02 -1.552624e+01 -6.462600e+01
 60570000000 -1.816667e+01 -5.793349e+01 -4.511980e+00 1.194093e+02 -4.597428e+00 1.202183e+02 -1.558533e+01 -6.489634e+01
 60585000000 -1.824090e+01 -5.823063e+01 -4.513818e+00 1.188052e+02 -4.592262e+00 1.197005e+02 -1.564834e+01 -6.516794e+01
 60600000000 -1.821879e+01 -5.819609e+01 -4.511689e+00 1.184451e+02 -4.602619e+00 1.191928e+02 -1.571892e+01 -6.540331e+01
 60615000000 -1.821640e+01 -5.834790e+01 -4.505130e+00 1.177506e+02 -4.598058e+00 1.186743e+02 -1.578381e+01 -6.562564e+01
 60630000000 -1.842919e+01 -5.951312e+01 -4.495475e+00 1.171509e+02 -4.604995e+00 1.180980e+02 -1.584776e+01 -6.581650e+01
 60645000000 -1.845936e+01 -5.908871e+01 -4.482737e+00 1.166950e+02 -4.593882e+00 1.175067e+02 -1.589784e+01 -6.598664e+01
 60660000000 -1.853621e+01 -5.877417e+01 -4.468778e+00 1.161361e+02 -4.583411e+00 1.168791e+02 -1.594000e+01 -6.620079e+01
 60675000000 -1.863631e+01 -5.907218e+01 -4.451579e+00 1.153869e+02 -4.577480e+00 1.161948e+02 -1.599793e+01 -6.646064e+01
 60690000000 -1.865307e+01 -5.819173e+01 -4.428380e+00 1.148255e+02 -4.573741e+00 1.154849e+02 -1.605473e+01 -6.669563e+01
 60705000000 -1.898229e+01 -5.894313e+01 -4.413022e+00 1.142032e+02 -4.553176e+00 1.147674e+02 -1.611028e+01 -6.690015e+01
 60720000000 -1.896115e+01 -5.987253e+01 -4.402584e+00 1.135040e+02 -4.555596e+00 1.139649e+02 -1.617087e+01 -6.709569e+01
 60735000000 -1.903430e+01 -5.860864e+01 -4.390358e+00 1.128235e+02 -4.518733e+00 1.132441e+02 -1.623400e+01 -6.730339e+01
 60750000000 -1.921079e+01 -5.806083e+01 -4.384531e+00 1.121008e+02 -4.541356e+00 1.125037e+02 -1.629217e+01 -6.728767e+01
 60765000000 -1.898411e+01 -5.914018e+01 -4.397760e+00 1.114430e+02 -4.564168e+00 1.117816e+02 -1.633678e+01 -6.729910e+01
 60780000000 -1.920108e+01 -5.828655e+01 -4.401938e+00 1.106662e+02 -4.554634e+00 1.111181e+02 -1.640048e+01 -6.738522e+01
 60795000000 -1.922717e+01 -5.832006e+01 -4.420116e+00 1.100941e+02 -4.567285e+00 1.104683e+02 -1.645166e+01 -6.748690e+01
 60810000000 -1.927980e+01 -5.864889e+01 -4.442820e+00 1.095861e+02 -4.578855e+00 1.098798e+02 -1.650775e+01 -6.768378e+01
 60825000000 -1.926255e+01 -5.744026e+01 -4.466496e+00 1.090326e+02 -4.594666e+00 1.092440e+02 -1.657463e+01 -6.787802e+01
 60840000000 -1.932522e+01 -5.855824e+01 -4.488214e+00 1.084415e+02 -4.602974e+00 1.086607e+02 -1.663809e+01 -6.806813e+01
 60855000000 -1.949668e+01 -5.794116e+01 -4.506679e+00 1.078072e+02 -4.613343e+00 1.081008e+02 -1.670888e+01 -6.820839e+01
 60870000000 -1.945990e+01 -5.821316e+01 -4.527419e+00 1.073646e+02 -4.593844e+00 1.076147e+02 -1.679256e+01 -6.842136e+01
 60885000000 -1.940630e+01 -5.830091e+01 -4.538807e+00 1.069980e+02 -4.588465e+00 1.070707e+02 -1.687502e+01 -6.866825e+01
 60900000000 -1.970438e+01 -5.974326e+01 -4.537279e+00 1.061855e+02 -4.575798e+00 1.065693e+02 -1.694550e+01 -6.877074e+01
 60915000000 -1.975416e+01 -5.797558e+01 -4.537840e+00 1.056211e+02 -4.568467e+00 1.060408e+02 -1.702867e+01 -6.899717e+01
 60930000000 -1.991904e+01 -5.785795e+01 -4.532647e+00 1.050076e+02 -4.559819e+00 1.054859e+02 -1.711500e+01 -6.913562e+01
 60945000000 -1.998149e+01 -5.706331e+01 -4.521433e+00 1.043305e+02 -4.574483e+00 1.048942e+02 -1.718107e+01 -6.921733e+01
 60960000000 -2.015997e+01 -5.703995e+01 -4.510153e+00 1.036649e+02 -4.552758e+00 1.042788e+02 -1.724869e+01 -6.928993e+01
 60975000000 -1.993599e+01 -5.674761e+01 -4.500780e+00 1.030385e+02 -4.544298e+00 1.035891e+02 -1.730683e+01 -6.935491e+01
 60990000000 -2.010790e+01 -5.747416e+01 -4.491760e+00 1.023979e+02 -4.531095e+00 1.028936e+02 -1.737145e+01 -6.944626e+01
 61005000000 -2.022174e+01 -5.677116e+01 -4.485723e+00 1.016188e+02 -4.545542e+00 1.021996e+02 -1.742838e+01 -6.947872e+01
 61020000000 -2.034145e+01 -5.612637e+01 -4.482540e+00 1.009307e+02 -4.549451e+00 1.015146e+02 -1.749484e+01 -6.953954e+01
 61035000000 -2.006357e+01 -5.529350e+01 -4.485868e+00 1.003714e+02 -4.573783e+00 1.008170e+02 -1.755850e+01 -6.961937e+01
 61050000000 -2.039058e+01 -5.563351e+01 -4.487577e+00 9.973855e+01 -4.549302e+00 1.001661e+02 -1.763676e+01 -6.960459e+01
 61065000000 -2.043582e+01 -5.407377e+01 -4.499762e+00 9.917668e+01 -4.573263e+00 9.946969e+01 -1.769377e+01 -6.967485e+01
 61080000000 -2.031975e+01 -5.572355e+01 -4.523539e+00 9.846728e+01 -4.559661e+00 9.890296e+01 -1.777691e+01 -6.965233e+01
 61095000000 -2.053843e+01 -5.540367e+01 -4.543098e+00 9.793760e+01 -4.592255e+00 9.833582e+01 -1.785466e+01 -6.977369e+01
 61110000000 -2.058798e+01 -5.547601e+01 -4.565278e+00 9.760214e+01 -4.592203e+00 9.780303e+01 -1.796124e+01 -6.988433e+01
 61125000000 -2.074331e+01 -5.458244e+01 -4.588124e+00 9.703181e+01 -4.577300e+00 9.729658e+01 -1.805927e+01 -6.991116e+01
 61140000000 -2.070741e+01 -5.501255e+01 -4.600284e+00 9.632125e+01 -4.584547e+00 9.683283e+01 -1.814905e+01 -6.996242e+01
 61155000000 -2.066467e+01 -5.430649e+01 -4.609657e+00 9.577491e+01 -4.586404e+00 9.633231e+01 -1.822898e+01 -6.993724e+01
 61170000000 -2.077264e+01 -5.360527e+01 -4.606390e+00 9.520163e+01 -4.607864e+00 9.581652e+01 -1.831938e+01 -6.992392e+01
 61185000000 -2.105341e+01 -5.334402e+01 -4.596692e+00 9.460649e+01 -4.610423e+00 9.529919e+01 -1.841226e+01 -6.988309e+01
 61200000000 -2.115576e+01 -5.331607e+01 -4.586065e+00 9.391966e+01 -4.591783e+00 9.476988e+01 -1.848935e+01 -6.978192e+01
 61215000000 -2.115696e+01 -5.444601e+01 -4.573361e+00 9.325096e+01 -4.600450e+00 9.430064e+01 -1.857797e+01 -6.974119e+01
 61230000000 -2.133185e+01 -5.289834e+01 -4.563126e+00 9.256574e+01 -4.606505e+00 9.383574e+01 -1.867936e+01 -6.967591e+01
 61245000000 -2.107233e+01 -5.249855e+01 -4.545606e+00 9.222240e+01 -4.593915e+00 9.327997e+01 -1.875655e+01 -6.950367e+01
 61260000000 -2.118072e+01 -5.239105e+01 -4.526295e+00 9.149916e+01 -4.617240e+00 9.265587e+01 -1.885432e+01 -6.942201e+01
 61275000000 -2.154346e+01 -5.267261e+01 -4.509605e+00 9.081710e+01 -4.586740e+00 9.198429e+01 -1.892815e+01 -6.930629e+01
 61290000000 -2.122738e+01 -5.254358e+01 -4.490777e+00 9.023987e+01 -4.595857e+00 9.127005e+01 -1.900026e+01 -6.916081e+01
 61305000000 -2.156188e+01 -5.328655e+01 -4.482195e+00 8.970954e+01 -4.601430e+00 9.057902e+01 -1.907132e+01 -6.899065e+01
 61320000000 -2.150412e+01 -5.000425e+01 -4.468108e+00 8.909855e+01 -4.610976e+00 8.988033e+01 -1.915592e+01 -6.884380e+01
 61335000000 -2.174959e+01 -5.097787e+01 -4.466381e+00 8.854058e+01 -4.600847e+00 8.917440e+01 -1.923724e+01 -6.872133e+01
 61350000000 -2.178455e+01 -4.899220e+01 -4.469066e+00 8.783802e+01 -4.607258e+00 8.847366e+01 -1.932584e+01 -6.854884e+01
 61365000000 -2.173603e+01 -5.150465e+01 -4.482252e+00 8.720900e+01 -4.621310e+00 8.783340e+01 -1.939741e+01 -6.840060e+01
 61380000000 -2.142287e+01 -4.942955e+01 -4.493848e+00 8.664699e+01 -4.605862e+00 8.714570e+01 -1.949506e+01 -6.822671e+01
 61395000000 -2.190653e+01 -4.835287e+01 -4.509696e+00 8.620675e+01 -4.596770e+00 8.651175e+01 -1.958407e+01 -6.807704e+01
 61410000000 -2.188680e+01 -4.943954e+01 -4.529445e+00 8.531132e+01 -4.586463e+00 8.593431e+01 -1.967699e+01 -6.779313e+01
 61425000000 -2.211638e+01 -4.867462e+01 -4.533921e+00 8.479161e+01 -4.610778e+00 8.543949e+01 -1.978235e+01 -6.757624e+01
 61440000000 -2.204373e+01 -4.743259e+01 -4.545491e+00 8.429502e+01 -4.612679e+00 8.482843e+01 -1.989050e+01 -6.737654e+01
 61455000000 -2.209878e+01 -4.663160e+01 -4.558736e+00 8.374687e+01 -4.610658e+00 8.434689e+01 -1.999501e+01 -6.702968e+01
 61470000000 -2.208879e+01 -4.679715e+01 -4.556378e+00 8.315807e+01 -4.618470e+00 8.385181e+01 -2.010425e+01 -6.667128e+01
 61485000000 -2.213531e+01 -4.642553e+01 -4.552901e+00 8.263223e+01 -4.617220e+00 8.334171e+01 -2.020073e+01 -6.626173e+01
 61500000000 -2.221061e+01 -4.667799e+01 -4.542664e+00 8.220224e+01 -4.612400e+00 8.282158e+01 -2.029946e+01 -6.587847e+01
 61515000000 -2.230475e+01 -4.448889e+01 -4.529021e+00 8.128205e+01 -4.601755e+00 8.230692e+01 -2.038312e+01 -6.546020e+01
 61530000000 -2.225299e+01 -4.486195e+01 -4.515104e+00 8.079980e+01 -4.602419e+00 8.173137e+01 -2.045275e+01 -6.516172e+01
 61545000000 -2.229013e+01 -4.448204e+01 -4.496386e+00 8.021829e+01 -4.605158e+00 8.108180e+01 -2.053051e+01 -6.490441e+01
 61560000000 -2.236538e+01 -4.374524e+01 -4.478353e+00 7.968532e+01 -4.586791e+00 8.032770e+01 -2.061631e+01 -6.461728e+01
 61575000000 -2.243738e+01 -4.593213e+01 -4.463635e+00 7.915482e+01 -4.590507e+00 7.947768e+01 -2.068768e+01 -6.421910e+01
 61590000000 -2.249913e+01 -4.297853e+01 -4.447981e+00 7.834190e+01 -4.577928e+00 7.863017e+01 -2.076820e+01 -6.369104e+01
 61605000000 -2.258394e+01 -4.186039e+01 -4.442473e+00 7.775510e+01 -4.578455e+00 7.786305e+01 -2.083139e+01 -6.314511e+01
 61620000000 -2.249415e+01 -4.293167e+01 -4.452341e+00 7.709126e+01 -4.543399e+00 7.721965e+01 -2.092674e+01 -6.253393e+01
 61635000000 -2.257812e+01 -4.118665e+01 -4.458155e+00 7.650541e+01 -4.570295e+00 7.655760e+01 -2.100593e+01 -6.218232e+01
 61650000000 -2.236915e+01 -4.054174e+01 -4.471633e+00 7.589669e+01 -4.575382e+00 7.582625e+01 -2.109179e+01 -6.169896e+01
 61665000000 -2.266724e+01 -3.897222e+01 -4.479893e+00 7.523416e+01 -4.586748e+00 7.517282e+01 -2.115624e+01 -6.124477e+01
 61680000000 -2.257368e+01 -3.736603e+01 -4.502647e+00 7.463666e+01 -4.594605e+00 7.454755e+01 -2.124395e+01 -6.061964e+01
 61695000000 -2.250219e+01 -3.974600e+01 -4.530049e+00 7.397235e+01 -4.604357e+00 7.396967e+01 -2.130077e+01 -5.992178e+01
 61710000000 -2.243465e+01 -3.890986e+01 -4.556388e+00 7.344056e+01 -4.615116e+00 7.334724e+01 -2.136769e+01 -5.941863e+01
 61725000000 -2.245920e+01 -3.961183e+01 -4.577364e+00 7.268955e+01 -4.603839e+00 7.287052e+01 -2.141494e+01 -5.876458e+01
 61740000000 -2.241462e+01 -3.909059e+01 -4.601038e+00 7.211711e+01 -4.618771e+00 7.242919e+01 -2.148734e+01 -5.824160e+01
 61755000000 -2.230291e+01 -3.818067e+01 -4.611586e+00 7.146012e+01 -4.600868e+00 7.196524e+01 -2.155304e+01 -5.760481e+01
 61770000000 -2.276585e+01 -3.760732e+01 -4.610402e+00 7.112505e+01 -4.616024e+00 7.148928e+01 -2.164113e+01 -5.691834e+01
 61785000000 -2.260000e+01 -3.595915e+01 -4.610546e+00 7.059185e+01 -4.598576e+00 7.099287e+01 -2.168846e+01 -5.622638e+01
 61800000000 -2.275279e+01 -3.546551e+01 -4.602268e+00 6.982069e+01 -4.622158e+00 7.047811e+01 -2.174120e+01 -5.568435e+01
 61815000000 -2.263018e+01 -3.564856e+01 -4.594327e+00 6.935540e+01 -4.597114e+00 7.000540e+01 -2.177694e+01 -5.493742e+01
 61830000000 -2.248359e+01 -3.324671e+01 -4.585160e+00 6.879163e+01 -4.590864e+00 6.948322e+01 -2.181825e+01 -5.430003e+01
 61845000000 -2.271849e+01 -3.494135e+01 -4.572090e+00 6.811887e+01 -4.595444e+00 6.892009e+01 -2.187266e+01 -5.355282e+01
 61860000000 -2.265690e+01 -3.225709e+01 -4.559034e+00 6.746434e+01 -4.602978e+00 6.829981e+01 -2.189860e+01 -5.272872e+01
 61875000000 -2.259996e+01 -3.176733e+01 -4.545321e+00 6.687035e+01 -4.603159e+00 6.765877e+01 -2.192082e+01 -5.208917e+01
 61890000000 -2.252931e+01 -3.083412e+01 -4.535251e+00 6.619072e+01 -4.568965e+00 6.693967e+01 -2.193930e+01 -5.119345e+01
 61905000000 -2.219252e+01 -3.048046e+01 -4.531037e+00 6.562273e+01 -4.580824e+00 6.621024e+01 -2.195295e+01 -5.045555e+01
 61920000000 -2.249623e+01 -3.096378e+01 -4.531242e+00 6.480072e+01 -4.593992e+00 6.560072e+01 -2.194247e+01 -4.976348e+01
 61935000000 -2.252560e+01 -2.997371e+01 -4.523344e+00 6.442451e+01 -4.594949e+00 6.498801e+01 -2.197031e+01 -4.900336e+01
 61950000000 -2.235440e+01 -3.044979e+01 -4.516684e+00 6.376984e+01 -4.594924e+00 6.430951e+01 -2.196951e+01 -4.824637e+01
 61965000000 -2.230567e+01 -3.043069e+01 -4.535311e+00 6.339192e+01 -4.591930e+00 6.351849e+01 -2.197256e+01 -4.746265e+01
 61980000000 -2.226040e+01 -2.991005e+01 -4.574659e+00 6.275318e+01 -4.613176e+00 6.290232e+01 -2.197287e+01 -4.677605e+01
 61995000000 -2.239518e+01 -2.865388e+01 -4.596515e+00 6.216732e+01 -4.617935e+00 6.242695e+01 -2.198812e+01 -4.598211e+01
 62010000000 -2.229009e+01 -2.888110e+01 -4.609773e+00 6.127286e+01 -4.607029e+00 6.193607e+01 -2.197900e+01 -4.536473e+01
 62025000000 -2.206291e+01 -2.771352e+01 -4.619047e+00 6.087413e+01 -4.627139e+00 6.140837e+01 -2.199666e+01 -4.435572e+01
 62040000000 -2.253007e+01 -2.535100e+01 -4.618599e+00 6.031404e+01 -4.619358e+00 6.089644e+01 -2.198839e+01 -4.356416e+01
 62055000000 -2.211356e+01 -2.738085e+01 -4.617295e+00 5.974674e+01 -4.611304e+00 6.048026e+01 -2.197900e+01 -4.261450e+01
 62070000000 -2.211663e+01 -2.538407e+01 -4.609504e+00 5.901957e+01 -4.622365e+00 6.005318e+01 -2.196096e+01 -4.181992e+01
 62085000000 -2.198987e+01 -2.446725e+01 -4.596213e+00 5.858239e+01 -4.609368e+00 5.953004e+01 -2.191686e+01 -4.103609e+01
 62100000000 -2.207479e+01 -2.578451e+01 -4.577744e+00 5.811549e+01 -4.607731e+00 5.895829e+01 -2.189068e+01 -4.036155e+01
 62115000000 -2.174619e+01 -2.349134e+01 -4.561508e+00 5.745681e+01 -4.598762e+00 5.839467e+01 -2.185175e+01 -3.966796e+01
 62130000000 -2.177371e+01 -2.347847e+01 -4.545483e+00 5.679409e+01 -4.588123e+00 5.783155e+01 -2.181125e+01 -3.897771e+01
 62145000000 -2.154385e+01 -2.394323e+01 -4.527932e+00 5.616011e+01 -4.599019e+00 5.721723e+01 -2.176945e+01 -3.818514e+01
 62160000000 -2.185048e+01 -2.491278e+01 -4.510467e+00 5.552506e+01 -4.597668e+00 5.653078e+01 -2.171817e+01 -3.752522e+01
 62175000000 -2.186798e+01 -2.278576e+01 -4.493830e+00 5.503817e+01 -4.573351e+00 5.581138e+01 -2.169046e+01 -3.693178e+01
 62190000000 -2.150054e+01 -2.210109e+01 -4.484073e+00 5.435590e+01 -4.586814e+00 5.507973e+01 -2.164022e+01 -3.626131e+01
 62205000000 -2.149826e+01 -2.169905e+01 -4.478464e+00 5.370559e+01 -4.589973e+00 5.436755e+01 -2.157554e+01 -3.562998e+01
 62220000000 -2.155191e+01 -2.240307e+01 -4.477711e+00 5.318625e+01 -4.594204e+00 5.366875e+01 -2.152682e+01 -3.502724e+01
 62235000000 -2.149999e+01 -1.995766e+01 -4.478849e+00 5.252225e+01 -4.573838e+00 5.298103e+01 -2.146171e+01 -3.437173e+01
 62250000000 -2.132402e+01 -2.205961e+01 -4.492361e+00 5.194449e+01 -4.598946e+00 5.230823e+01 -2.140051e+01 -3.381337e+01
 62265000000 -2.140328e+01 -2.166817e+01 -4.502788e+00 5.140037e+01 -4.549790e+00 5.169710e+01 -2.133144e+01 -3.310278e+01
 62280000000 -2.122044e+01 -2.242135e+01 -4.520617e+00 5.078469e+01 -4.580077e+00 5.107459e+01 -2.128086e+01 -3.254795e+01
 62295000000 -2.130348e+01 -2.242093e+01 -4.537268e+00 5.026735e+01 -4.578866e+00 5.049347e+01 -2.122630e+01 -3.189199e+01
 62310000000 -2.142091e+01 -2.022801e+01 -4.549539e+00 4.958783e+01 -4.569867e+00 4.995596e+01 -2.115199e+01 -3.124934e+01
 62325000000 -2.109128e+01 -2.086487e+01 -4.562135e+00 4.900259e+01 -4.571435e+00 4.946864e+01 -2.107311e+01 -3.070737e+01
 62340000000 -2.114636e+01 -2.152426e+01 -4.566761e+00 4.818535e+01 -4.555708e+00 4.897297e+01 -2.099719e+01 -3.033364e+01
 62355000000 -2.095889e+01 -1.982128e+01 -4.571024e+00 4.758006e+01 -4.545696e+00 4.847920e+01 -2.092511e+01 -2.976078e+01
 62370000000 -2.090474e+01 -1.962307e+01 -4.564126e+00 4.705186e+01 -4.558376e+00 4.799127e+01 -2.085997e+01 -2.922585e+01
 62385000000 -2.086698e+01 -2.000261e+01 -4.555312e+00 4.645271e+01 -4.565705e+00 4.747686e+01 -2.079011e+01 -2.874684e+01
