# GHZ S DB R 50.0
! Port[1] = PROBE
! Port[2] = PKG

60.000          -16.744510180019    -45.219987158158  -1.555819940713    71.426063142939  -1.525495940769    72.782263143075  -22.184436481618    139.376016295964
60.015          -16.744590637781    -45.221354978032  -1.571676620656    71.358484663810  -1.537786620711    72.430984663980  -22.282800539788    141.114256414735
60.030          -16.741181490764    -45.245785804377  -1.551688581943    71.438256079370  -1.543897581990    72.204756079513  -22.247277543947    138.739294235458
60.045          -16.746010579884    -45.334780198813  -1.567818151841    71.367126141898  -1.550471151890    72.174226142036  -22.139750210759    139.246067757247
60.060          -16.750478827650    -45.380913965264  -1.549043195574    71.247835039732  -1.546507195618    72.060335039880  -22.195924572337    137.587269112049
60.075          -16.751017960716    -45.516866676620  -1.559030039158    71.173416799562  -1.533115039213    71.973516799720  -22.341203483967    138.219201357653
60.090          -16.749609854865    -45.460694201921  -1.544113718463    71.145125661236  -1.538430718508    71.682425661390  -22.292513841595    138.577664192923
60.105          -16.744912245833    -45.448242897578  -1.561568443455    70.979406431704  -1.520386443514    71.617606431860  -22.260905853260    138.045804481498
60.120          -16.735570164708    -45.482169176778  -1.566208687717    70.824138241415  -1.510004687784    71.486938241582  -22.454698558658    137.930617534061
60.135          -16.738121957149    -45.443168232770  -1.558839488963    70.684443086777  -1.493395489035    71.390143086937  -22.400120221635    137.425749998816
60.150          -16.745010106777    -45.479162510516  -1.562080162346    70.480001127703  -1.486684162424    71.274001127869  -22.533626218398    137.402949607107
60.165          -16.752383529797    -45.466290325586  -1.573930111113    70.383174696180  -1.487959111195    71.041974696333  -22.483070446101    136.881536420495
60.180          -16.743358769393    -45.473567000269  -1.582103894215    70.084744259228  -1.487597894299    71.137744259398  -22.469078541776    137.679157724487
60.195          -16.747871963310    -45.400704680199  -1.585337979407    69.984319598980  -1.502861979483    70.926419599136  -22.250800625749    137.608183203333
60.210          -16.752395891828    -45.315285310626  -1.580162035131    69.855983182216  -1.507451035204    70.800883182363  -22.161174210584    136.453682717474
60.225          -16.761295789417    -45.354644720660  -1.555595701159    69.680321997221  -1.512241701222    70.650821997391  -22.348865239404    136.630344228851
60.240          -16.763134764179    -45.348681416634  -1.553871723095    69.583017199055  -1.528893723148    70.581317199208  -22.148453083454    135.813537263229
60.255          -16.760900949154    -45.318668668351  -1.545805535649    69.482013363858  -1.543886535694    70.376413364026  -22.295138291050    135.897594711978
60.270          -16.782619419353    -45.276993137584  -1.544277209518    69.410262005270  -1.549569209560    70.326862005444  -22.276288570816    136.319436735428
60.285          -16.793633597957    -45.270066183460  -1.565710663725    69.383936755865  -1.551973663775    70.157536756041  -22.260634142529    135.946958597831
60.300          -16.795856447644    -45.260805497174  -1.552798846986    69.370742156080  -1.562022847025    69.949742156256  -22.227708858859    135.941757209578
60.315          -16.789670754849    -45.303026546654  -1.573264803162    69.322289623718  -1.556825803212    69.628489623913  -22.316699890819    135.654197948559
60.330          -16.793088620939    -45.364150775717  -1.562903746157    69.286308117565  -1.546442746207    69.526208117757  -22.282676361472    134.832311859911
60.345          -16.808431113662    -45.397566206158  -1.566927284445    69.208538780230  -1.535671284500    69.490738780420  -22.256665829846    134.122657828094
60.360          -16.818149982558    -45.418417646184  -1.581450194848    69.195215907769  -1.538629194902    69.241515907940  -21.967280055073    134.844374206020
60.375          -16.842819037384    -45.396739323350  -1.584719259832    69.085387903072  -1.509628259903    69.357387903223  -21.961299274234    133.165942057647
60.390          -16.861630199733    -45.408356061521  -1.565330913543    68.907314837722  -1.498922913613    69.241414837895  -22.245930701969    132.952114932379
60.405          -16.876709961280    -45.435263635021  -1.575073099144    68.715132459569  -1.487687099222    69.233032459733  -22.160006306268    133.007199386188
60.420          -16.870480195877    -45.431572719261  -1.574821799501    68.540609557823  -1.482932799575    68.958709557993  -22.061003769902    134.361206024165
60.435          -16.856012225032    -45.514141050300  -1.566154548590    68.408219508211  -1.473437548669    68.995219508361  -22.062221664642    132.171476830121
60.450          -16.876306077637    -45.567142041166  -1.575616565487    68.132126758127  -1.453380565577    68.781326758298  -22.160277810957    132.493433745988
60.465          -16.894537510957    -45.533162472834  -1.567800441563    68.048575484181  -1.452308441650    68.644875484324  -21.998057820289    132.198933916968
60.480          -16.913794167404    -45.472615618664  -1.550050719379    67.866316973284  -1.457481719459    68.481316973437  -22.134293885392    131.567050255224
60.495          -16.932080065478    -45.387074814833  -1.533568215475    67.656495205862  -1.473530215538    68.237695206026  -22.079286861064    132.141976599469
60.510          -16.938590903592    -45.313557216130  -1.557342088883    67.554456059725  -1.464686088966    68.206756059873  -22.154723707926    130.632715217693
60.525          -16.955328226108    -45.168728970450  -1.562453393832    67.362625087286  -1.471247393912    67.969825087459  -22.206036296985    131.558432189730
60.540          -16.962941930221    -45.095241783052  -1.577533188446    67.253719769481  -1.478260188530    67.813419769659  -22.230356288431    131.543186405540
60.555          -16.969610781550    -45.117810038200  -1.574344937553    67.244664213939  -1.489547937631    67.753064214099  -22.101105242151    130.856707107053
60.570          -16.990876196067    -45.107478358709  -1.583110135802    67.105694098068  -1.500434135876    67.607694098250  -22.113365909313    132.213229901311
60.585          -16.999945528896    -45.162318931442  -1.594439909861    67.089011649886  -1.508846909933    67.521611650048  -21.862971129717    132.144096718264
60.600          -17.031998411874    -45.183382739189  -1.567954426524    67.012497622376  -1.500066426591    67.523497622542  -21.964347987631    130.884661475241
60.615          -17.048929366616    -45.183019292593  -1.576890366536    66.905690531722  -1.503362366602    67.354890531908  -22.041307984677    133.000599589896
60.630          -17.059122356656    -45.175853331160  -1.600878956343    66.870563009163  -1.489907956421    67.192863009311  -21.684278512912    130.570211691288
60.645          -17.064570070579    -45.176830150171  -1.585791179422    66.697653558846  -1.483028179500    67.233353559004  -21.866812860276    130.235782672812
60.660          -17.066591791984    -45.203496689470  -1.586954298397    66.551130390484  -1.475623298479    67.211930390636  -21.882241686139    130.300343709821
60.675          -17.071283522098    -45.219293766936  -1.582666963895    66.459777108909  -1.469580963977    67.080377109036  -21.675477133589    129.842541846648
60.690          -17.078851161286    -45.227742574860  -1.575855688100    66.262950706099  -1.443330688196    66.915650706248  -22.053219893388    128.842666736724
60.705          -17.080602121433    -45.258699686821  -1.585020114227    66.020266136777  -1.443600114323    66.840866136921  -21.909725730596    129.082527059149
60.720          -17.086046309510    -45.312804647348  -1.571275212068    65.819240410932  -1.433987212163    66.722240411053  -21.744941082076    127.078416983826
60.735          -17.100928813246    -45.235365313371  -1.557988779938    65.619105063734  -1.435298780026    66.525105063871  -21.908083607507    128.204239848426
60.750          -17.093263405402    -45.158697031152  -1.566181573272    65.449064691889  -1.421670573373    66.467464692002  -21.863900138183    126.490208663274
60.765          -17.108795368525    -45.013573056295  -1.571090939786    65.176883507328  -1.420194939888    66.102983507486  -22.175706577006    128.387033736144
60.780          -17.100803502969    -45.031354825177  -1.565777562492    65.010257425588  -1.411515562603    65.956357425744  -22.371325522082    126.032448454058
60.795          -17.112306765424    -44.959930133396  -1.569133989600    64.802785464118  -1.437504989697    65.839285464288  -22.366226261621    128.700646084652
60.810          -17.126671334403    -44.826791662765  -1.585097368439    64.697777043086  -1.441070368543    65.702377043252  -22.317828933181    127.975111165108
60.825          -17.145424465070    -44.794455002349  -1.577029422551    64.547921081834  -1.458116422644    65.619021082003  -22.269206191677    128.635130199334
60.840          -17.129050465857    -44.753086939015  -1.594208450922    64.388897589032  -1.472124451014    65.532097589201  -22.108615352614    128.973457884426
60.855          -17.138442040830    -44.800446057817  -1.595671662149    64.338160493612  -1.490710662235    65.475160493761  -21.964452971023    128.124616182886
60.870          -17.138589149456    -44.807977658531  -1.583132709818    64.275618379350  -1.506673709891    65.373218379506  -21.945881178685    127.726196166041
60.885          -17.141120516379    -45.020420927847  -1.573721899722    64.162398120496  -1.524897899781    65.406598120650  -21.858623344546    128.245637465897
60.900          -17.136731107910    -45.101387071224  -1.582668066993    64.140255396490  -1.538426067044    65.153055396633  -21.609870440163    128.490543629502
60.915          -17.150194790135    -45.266470806920  -1.577145867230    64.093174798886  -1.539704867284    65.024374799034  -21.833643688403    127.522313079904
60.930          -17.175485991644    -45.374775470643  -1.558845395618    64.041633095775  -1.535809395669    64.999533095907  -21.767231357144    125.762036208064
60.945          -17.181713311704    -45.462979393696  -1.564968257478    63.942275530850  -1.521780257539    64.768775530991  -21.881632714465    124.925319403218
60.960          -17.189770917101    -45.520583427989  -1.556804935914    63.876203745014  -1.527668935965    64.647503745134  -21.675864455490    125.283057464372
60.975          -17.178206133362    -45.505583830967  -1.552592037264    63.623288166838  -1.512467037321    64.547388166982  -21.865624738737    125.411467038803
60.990          -17.172135443120    -45.527062228814  -1.554599821515    63.418751241168  -1.504896821575    64.354051241316  -21.853741281370    124.785686016794
61.005          -17.166920038289    -45.504851730775  -1.565507326936    63.279854895532  -1.500827327003    64.144354895677  -21.856936744964    125.046258131332
61.020          -17.162558530686    -45.412258738229  -1.559827692107    63.152490712956  -1.495650692177    63.927890713091  -21.852039171521    123.767660677348
61.035          -17.145329196195    -45.376159898672  -1.563581672770    62.913075776521  -1.477393672855    63.800675776683  -22.149754657249    123.414966804261
61.050          -17.125288528065    -45.343754934267  -1.560068821061    62.779575796572  -1.492348821134    63.720475796712  -21.839808375753    123.363305491266
61.065          -17.095801207114    -45.347553155706  -1.574059713322    62.597555322697  -1.499233713403    63.601855322840  -21.972407960195    122.803900180515
61.080          -17.091790243201    -45.448414027273  -1.558564772150    62.432413305786  -1.521704772210    63.365313305958  -22.012969525363    124.727344115203
61.095          -17.103072984388    -45.490793405021  -1.586872699443    62.320083505396  -1.529219699512    63.295783505568  -21.907624963250    124.381673063004
61.110          -17.104024572983    -45.517591802680  -1.588004448688    62.244184250511  -1.549406448746    63.296484250672  -21.695445681832    124.200391843363
61.125          -17.117194465054    -45.625857616124  -1.564521905198    62.211837051389  -1.572016905238    63.236437051542  -21.662914753689    123.025066644476
61.140          -17.132411685293    -45.846628204290  -1.579549769789    62.182458628504  -1.580101769830    63.087558628661  -21.637921650675    123.598260944560
61.155          -17.117381412353    -45.905037378596  -1.586570053443    62.172035292662  -1.586300053486    62.922635292816  -21.627593221740    123.137867277516
61.170          -17.110247833131    -45.929960303597  -1.606597825634    62.106073402819  -1.582526825687    62.766973402977  -21.557911526458    122.648626202434
61.185          -17.108210068989    -45.982820165512  -1.595543696162    62.006094564783  -1.574805696215    62.743594564938  -21.540193972567    120.747000671733
61.200          -17.092482121900    -46.083059490811  -1.591303223057    61.966153931186  -1.579285223104    62.511553931340  -21.521065610942    121.021714873006
61.215          -17.091929894580    -46.155396648298  -1.583702482331    61.960687558606  -1.572951482376    62.249287558765  -21.489373856642    120.895303247697
61.230          -17.098621735595    -46.285370199075  -1.598620858573    62.002482271333  -1.565136858628    62.091882271482  -21.456877430742    120.765855132750
61.245          -17.093862263271    -46.373478072876  -1.598147371272    61.846227867869  -1.546237371336    62.097027868035  -21.643552281585    120.623090801526
61.260          -17.104910927895    -46.422659219008  -1.604836900391    61.756652771657  -1.529471900465    61.889852771818  -21.589749042069    120.105537167042
61.275          -17.101376903159    -46.438650675319  -1.606640705798    61.628983412715  -1.520115705876    61.772783412856  -21.432649171970    118.987868493245
61.290          -17.096511202986    -46.452467429518  -1.596916365224    61.380234116611  -1.505498365305    61.679934116778  -21.707221156397    119.550803942811
61.305          -17.099385864513    -46.456868689497  -1.626043242288    61.194741001545  -1.496213242382    61.608741001702  -21.554955905989    120.021435784017
61.320          -17.113163374086    -46.404854139730  -1.635062701926    61.051863136038  -1.473902702040    61.595963136172  -21.577914088439    117.754464856222
61.335          -17.111957353472    -46.322976945256  -1.617831635874    60.806623266080  -1.479058635974    61.491023266219  -21.455269852529    118.279518692387
61.350          -17.110051569621    -46.280835951335  -1.632729907918    60.639199410170  -1.473930908032    61.405899410302  -21.555251574356    117.457977966129
61.365          -17.103100763911    -46.251442973778  -1.630868000627    60.460555210038  -1.480185000731    61.193955210186  -21.469731129284    118.892519962106
61.380          -17.102366059206    -46.206327056552  -1.605966274990    60.284060667194  -1.490757275087    61.107760667350  -21.728002314187    118.051305566924
61.395          -17.097031518935    -46.201657449117  -1.616664063749    60.118476532560  -1.499234063847    60.957976532710  -21.633776816986    116.739609570198
61.410          -17.106087271370    -46.230543150725  -1.602401909540    60.051033253510  -1.517072909620    60.776733253658  -21.503673994525    117.767729303808
61.425          -17.123440546979    -46.193328400771  -1.613613779662    60.006690703033  -1.520306779746    60.604290703185  -21.543095964586    117.535313661032
61.440          -17.128508243380    -46.146843494045  -1.613967829769    59.840535127336  -1.517144829857    60.582235127489  -21.546915594040    116.466799634688
61.455          -17.140140743152    -46.109261676167  -1.610583724298    59.776118739471  -1.534715724376    60.568818739617  -21.471614506187    116.482578770304
61.470          -17.150895573704    -46.094241512747  -1.610405450294    59.745790931992  -1.533207450371    60.396590932136  -21.404908582734    116.213651717722
61.485          -17.167395396102    -46.087684248037  -1.615822089875    59.626314955577  -1.529395089958    60.280514955738  -21.587398292590    116.033396677452
61.500          -17.190607134672    -46.071381393750  -1.613505728474    59.552974574437  -1.533832728550    60.302774574590  -21.476937478033    116.991830798815
61.515          -17.195033070205    -46.134177211664  -1.617296914822    59.576121895776  -1.525390914905    60.032921895915  -21.409813074051    115.859859547261
61.530          -17.205299450602    -46.253091916066  -1.616480280345    59.422809486771  -1.511916280435    60.008409486925  -21.565861482523    115.503107525844
61.545          -17.217789785867    -46.380120768271  -1.619403698582    59.279438854991  -1.499538698679    59.803838855154  -21.631766412457    115.666589091760
61.560          -17.215488135882    -46.494020471327  -1.614713036572    59.063160781347  -1.496563036666    59.724160781506  -21.575187155535    116.106931719011
61.575          -17.211539143622    -46.594077588116  -1.609490866571    58.749045681640  -1.484440866662    59.738345681794  -21.345800777489    116.830355214654
61.590          -17.203819334393    -46.731583550592  -1.614431840419    58.488163772555  -1.472958840522    59.666163772700  -21.393998514914    115.561993904413
61.605          -17.197977071021    -46.715138787812  -1.617806573197    58.272349267242  -1.466111573306    59.502249267381  -21.377991384665    114.935245302693
61.620          -17.219948074079    -46.628812807390  -1.586422094528    58.087755085128  -1.473722094618    59.343155085283  -21.356649025724    114.923645475051
61.635          -17.237806705653    -46.647346072646  -1.598311436928    57.927105180091  -1.467573437032    59.189005180252  -21.534603313015    113.561292230758
61.650          -17.269213212675    -46.754338595446  -1.594897657274    57.709318074334  -1.470991657377    59.178818074490  -21.575196139950    113.701483530345
61.665          -17.261676810325    -46.811267021685  -1.613834120472    57.590959518456  -1.474637120580    58.981659518593  -21.370965942746    112.894389612737
61.680          -17.241462442648    -46.803863412641  -1.610276740264    57.471490628753  -1.481005740374    58.787390628888  -21.416963407044    111.071507715411
61.695          -17.243544421024    -46.852343285988  -1.624452576025    57.252954126089  -1.498602576131    58.642554126252  -21.558417772894    112.657858345987
61.710          -17.227464554149    -47.055876540445  -1.625182977658    57.101002067688  -1.520543977754    58.556502067857  -21.553615001924    113.250843648132
61.725          -17.233212445631    -47.205582882027  -1.615584026899    57.073256492157  -1.548223026976    58.371856492335  -21.538276687112    114.249009303758
61.740          -17.232154929444    -47.491387666646  -1.620875218590    57.054616642359  -1.560807218667    58.239516642548  -21.617452005036    113.857613822289
61.755          -17.245612219706    -47.695272449741  -1.616315256623    57.067040884348  -1.572175256693    58.092440884535  -21.562975842175    113.126160183164
61.770          -17.267187291094    -47.878315209801  -1.630993969006    57.005925867160  -1.581074969073    58.071725867341  -21.317728625940    113.058087954155
61.785          -17.275219014958    -48.065398374405  -1.610847556311    57.027865787802  -1.586097556370    58.019265787960  -21.229100061542    111.957780360270
61.800          -17.282808704283    -48.162432231404  -1.619449536211    56.940342627138  -1.583764536272    57.866342627308  -21.209174851582    111.845285154931
61.815          -17.287675426074    -48.318180739860  -1.607444291117    56.863949278501  -1.584168291175    57.716149278686  -21.434518656970    111.423360897378
