!Keysight Technologies,N5242A,MY56023178,A.10.60.03
!Date: Tuesday, August 25, 2020 09:26:59
!Correction: S11(Full 2 Port(1,2))
!S21(Full 2 Port(1,2))
!S12(Full 2 Port(1,2))
!S22(Full 2 Port(1,2))
!S2P File: Measurements: S11, S21, S12, S22:
# Hz S  dB   R 50
 60000000000 -2.985161e+00 1.594215e+01 0 0 0 0 -2.985161e+00 1.594215e+01
 60015000000 -2.983346e+00 1.531310e+01 0 0 0 0 -2.983346e+00 1.531310e+01
 60030000000 -2.947062e+00 1.471123e+01 0 0 0 0 -2.947062e+00 1.471123e+01
 60045000000 -2.924551e+00 1.428548e+01 0 0 0 0 -2.924551e+00 1.428548e+01
 60060000000 -2.935781e+00 1.363015e+01 0 0 0 0 -2.935781e+00 1.363015e+01
 60075000000 -2.902353e+00 1.312519e+01 0 0 0 0 -2.902353e+00 1.312519e+01
 60090000000 -2.898873e+00 1.258158e+01 0 0 0 0 -2.898873e+00 1.258158e+01
 60105000000 -2.871113e+00 1.190119e+01 0 0 0 0 -2.871113e+00 1.190119e+01
 60120000000 -2.863096e+00 1.150752e+01 0 0 0 0 -2.863096e+00 1.150752e+01
 60135000000 -2.841408e+00 1.091701e+01 0 0 0 0 -2.841408e+00 1.091701e+01
 60150000000 -2.805317e+00 1.035242e+01 0 0 0 0 -2.805317e+00 1.035242e+01
 60165000000 -2.814854e+00 1.001899e+01 0 0 0 0 -2.814854e+00 1.001899e+01
 60180000000 -2.807259e+00 9.375167e+00 0 0 0 0 -2.807259e+00 9.375167e+00
 60195000000 -2.805921e+00 8.789000e+00 0 0 0 0 -2.805921e+00 8.789000e+00
 60210000000 -2.777830e+00 8.103380e+00 0 0 0 0 -2.777830e+00 8.103380e+00
 60225000000 -2.781252e+00 7.571535e+00 0 0 0 0 -2.781252e+00 7.571535e+00
 60240000000 -2.752169e+00 7.070939e+00 0 0 0 0 -2.752169e+00 7.070939e+00
 60255000000 -2.732019e+00 6.605523e+00 0 0 0 0 -2.732019e+00 6.605523e+00
 60270000000 -2.702521e+00 6.000687e+00 0 0 0 0 -2.702521e+00 6.000687e+00
 60285000000 -2.717921e+00 5.399965e+00 0 0 0 0 -2.717921e+00 5.399965e+00
 60300000000 -2.704238e+00 4.908630e+00 0 0 0 0 -2.704238e+00 4.908630e+00
 60315000000 -2.698417e+00 4.367895e+00 0 0 0 0 -2.698417e+00 4.367895e+00
 60330000000 -2.673534e+00 3.844134e+00 0 0 0 0 -2.673534e+00 3.844134e+00
 60345000000 -2.651990e+00 3.330900e+00 0 0 0 0 -2.651990e+00 3.330900e+00
 60360000000 -2.669854e+00 2.627100e+00 0 0 0 0 -2.669854e+00 2.627100e+00
 60375000000 -2.630102e+00 2.182489e+00 0 0 0 0 -2.630102e+00 2.182489e+00
 60390000000 -2.633629e+00 1.704320e+00 0 0 0 0 -2.633629e+00 1.704320e+00
 60405000000 -2.616982e+00 1.127918e+00 0 0 0 0 -2.616982e+00 1.127918e+00
 60420000000 -2.603492e+00 4.303151e-01 0 0 0 0 -2.603492e+00 4.303151e-01
 60435000000 -2.609321e+00 -1.145945e-02 0 0 0 0 -2.609321e+00 -1.145945e-02
 60450000000 -2.588516e+00 -6.105251e-01 0 0 0 0 -2.588516e+00 -6.105251e-01
 60465000000 -2.581003e+00 -1.015104e+00 0 0 0 0 -2.581003e+00 -1.015104e+00
 60480000000 -2.560644e+00 -1.565842e+00 0 0 0 0 -2.560644e+00 -1.565842e+00
 60495000000 -2.537396e+00 -2.257632e+00 0 0 0 0 -2.537396e+00 -2.257632e+00
 60510000000 -2.534761e+00 -2.581104e+00 0 0 0 0 -2.534761e+00 -2.581104e+00
 60525000000 -2.526074e+00 -3.290820e+00 0 0 0 0 -2.526074e+00 -3.290820e+00
 60540000000 -2.519145e+00 -3.962489e+00 0 0 0 0 -2.519145e+00 -3.962489e+00
 60555000000 -2.505985e+00 -4.190779e+00 0 0 0 0 -2.505985e+00 -4.190779e+00
 60570000000 -2.490691e+00 -4.870015e+00 0 0 0 0 -2.490691e+00 -4.870015e+00
 60585000000 -2.507977e+00 -5.505996e+00 0 0 0 0 -2.507977e+00 -5.505996e+00
 60600000000 -2.473655e+00 -5.903215e+00 0 0 0 0 -2.473655e+00 -5.903215e+00
 60615000000 -2.469739e+00 -6.411899e+00 0 0 0 0 -2.469739e+00 -6.411899e+00
 60630000000 -2.483614e+00 -7.001564e+00 0 0 0 0 -2.483614e+00 -7.001564e+00
 60645000000 -2.468428e+00 -7.707187e+00 0 0 0 0 -2.468428e+00 -7.707187e+00
 60660000000 -2.460911e+00 -8.108694e+00 0 0 0 0 -2.460911e+00 -8.108694e+00
 60675000000 -2.463182e+00 -8.653725e+00 0 0 0 0 -2.463182e+00 -8.653725e+00
 60690000000 -2.429089e+00 -8.941739e+00 0 0 0 0 -2.429089e+00 -8.941739e+00
 60705000000 -2.480051e+00 -9.520089e+00 0 0 0 0 -2.480051e+00 -9.520089e+00
 60720000000 -2.437012e+00 -1.018722e+01 0 0 0 0 -2.437012e+00 -1.018722e+01
 60735000000 -2.443697e+00 -1.064498e+01 0 0 0 0 -2.443697e+00 -1.064498e+01
 60750000000 -2.428916e+00 -1.110243e+01 0 0 0 0 -2.428916e+00 -1.110243e+01
 60765000000 -2.402850e+00 -1.195558e+01 0 0 0 0 -2.402850e+00 -1.195558e+01
 60780000000 -2.389675e+00 -1.239275e+01 0 0 0 0 -2.389675e+00 -1.239275e+01
 60795000000 -2.417592e+00 -1.288420e+01 0 0 0 0 -2.417592e+00 -1.288420e+01
 60810000000 -2.402399e+00 -1.338321e+01 0 0 0 0 -2.402399e+00 -1.338321e+01
 60825000000 -2.412877e+00 -1.391063e+01 0 0 0 0 -2.412877e+00 -1.391063e+01
 60840000000 -2.385003e+00 -1.456427e+01 0 0 0 0 -2.385003e+00 -1.456427e+01
 60855000000 -2.391735e+00 -1.490916e+01 0 0 0 0 -2.391735e+00 -1.490916e+01
 60870000000 -2.386526e+00 -1.545054e+01 0 0 0 0 -2.386526e+00 -1.545054e+01
 60885000000 -2.363924e+00 -1.600403e+01 0 0 0 0 -2.363924e+00 -1.600403e+01
 60900000000 -2.382066e+00 -1.666361e+01 0 0 0 0 -2.382066e+00 -1.666361e+01
 60915000000 -2.365438e+00 -1.704215e+01 0 0 0 0 -2.365438e+00 -1.704215e+01
 60930000000 -2.361658e+00 -1.751461e+01 0 0 0 0 -2.361658e+00 -1.751461e+01
 60945000000 -2.369884e+00 -1.817681e+01 0 0 0 0 -2.369884e+00 -1.817681e+01
 60960000000 -2.406883e+00 -1.852797e+01 0 0 0 0 -2.406883e+00 -1.852797e+01
 60975000000 -2.348608e+00 -1.922808e+01 0 0 0 0 -2.348608e+00 -1.922808e+01
 60990000000 -2.354783e+00 -1.992541e+01 0 0 0 0 -2.354783e+00 -1.992541e+01
 61005000000 -2.376528e+00 -2.032471e+01 0 0 0 0 -2.376528e+00 -2.032471e+01
 61020000000 -2.364170e+00 -2.100005e+01 0 0 0 0 -2.364170e+00 -2.100005e+01
 61035000000 -2.326375e+00 -2.142590e+01 0 0 0 0 -2.326375e+00 -2.142590e+01
 61050000000 -2.335954e+00 -2.193818e+01 0 0 0 0 -2.335954e+00 -2.193818e+01
 61065000000 -2.365153e+00 -2.231552e+01 0 0 0 0 -2.365153e+00 -2.231552e+01
 61080000000 -2.352766e+00 -2.306343e+01 0 0 0 0 -2.352766e+00 -2.306343e+01
 61095000000 -2.357105e+00 -2.361533e+01 0 0 0 0 -2.357105e+00 -2.361533e+01
 61110000000 -2.342668e+00 -2.414584e+01 0 0 0 0 -2.342668e+00 -2.414584e+01
 61125000000 -2.359878e+00 -2.455574e+01 0 0 0 0 -2.359878e+00 -2.455574e+01
 61140000000 -2.359530e+00 -2.517014e+01 0 0 0 0 -2.359530e+00 -2.517014e+01
 61155000000 -2.337051e+00 -2.564921e+01 0 0 0 0 -2.337051e+00 -2.564921e+01
 61170000000 -2.350141e+00 -2.626382e+01 0 0 0 0 -2.350141e+00 -2.626382e+01
 61185000000 -2.373659e+00 -2.684021e+01 0 0 0 0 -2.373659e+00 -2.684021e+01
 61200000000 -2.364207e+00 -2.730054e+01 0 0 0 0 -2.364207e+00 -2.730054e+01
 61215000000 -2.352764e+00 -2.811169e+01 0 0 0 0 -2.352764e+00 -2.811169e+01
 61230000000 -2.366939e+00 -2.853847e+01 0 0 0 0 -2.366939e+00 -2.853847e+01
 61245000000 -2.346904e+00 -2.889827e+01 0 0 0 0 -2.346904e+00 -2.889827e+01
 61260000000 -2.345349e+00 -2.939894e+01 0 0 0 0 -2.345349e+00 -2.939894e+01
 61275000000 -2.364883e+00 -3.004242e+01 0 0 0 0 -2.364883e+00 -3.004242e+01
 61290000000 -2.350078e+00 -3.065219e+01 0 0 0 0 -2.350078e+00 -3.065219e+01
 61305000000 -2.370440e+00 -3.131413e+01 0 0 0 0 -2.370440e+00 -3.131413e+01
 61320000000 -2.363378e+00 -3.156661e+01 0 0 0 0 -2.363378e+00 -3.156661e+01
 61335000000 -2.389814e+00 -3.212427e+01 0 0 0 0 -2.389814e+00 -3.212427e+01
 61350000000 -2.374267e+00 -3.255737e+01 0 0 0 0 -2.374267e+00 -3.255737e+01
 61365000000 -2.368620e+00 -3.339320e+01 0 0 0 0 -2.368620e+00 -3.339320e+01
 61380000000 -2.373465e+00 -3.367852e+01 0 0 0 0 -2.373465e+00 -3.367852e+01
 61395000000 -2.391899e+00 -3.418268e+01 0 0 0 0 -2.391899e+00 -3.418268e+01
 61410000000 -2.375319e+00 -3.491649e+01 0 0 0 0 -2.375319e+00 -3.491649e+01
 61425000000 -2.403246e+00 -3.527319e+01 0 0 0 0 -2.403246e+00 -3.527319e+01
 61440000000 -2.401012e+00 -3.573043e+01 0 0 0 0 -2.401012e+00 -3.573043e+01
 61455000000 -2.402729e+00 -3.631062e+01 0 0 0 0 -2.402729e+00 -3.631062e+01
 61470000000 -2.405817e+00 -3.698710e+01 0 0 0 0 -2.405817e+00 -3.698710e+01
 61485000000 -2.405496e+00 -3.750607e+01 0 0 0 0 -2.405496e+00 -3.750607e+01
 61500000000 -2.407295e+00 -3.806546e+01 0 0 0 0 -2.407295e+00 -3.806546e+01
 61515000000 -2.432818e+00 -3.848660e+01 0 0 0 0 -2.432818e+00 -3.848660e+01
 61530000000 -2.435092e+00 -3.884190e+01 0 0 0 0 -2.435092e+00 -3.884190e+01
 61545000000 -2.431298e+00 -3.932326e+01 0 0 0 0 -2.431298e+00 -3.932326e+01
 61560000000 -2.455580e+00 -3.991028e+01 0 0 0 0 -2.455580e+00 -3.991028e+01
 61575000000 -2.419400e+00 -4.070212e+01 0 0 0 0 -2.419400e+00 -4.070212e+01
 61590000000 -2.461530e+00 -4.108542e+01 0 0 0 0 -2.461530e+00 -4.108542e+01
 61605000000 -2.478359e+00 -4.165572e+01 0 0 0 0 -2.478359e+00 -4.165572e+01
 61620000000 -2.464882e+00 -4.230697e+01 0 0 0 0 -2.464882e+00 -4.230697e+01
 61635000000 -2.478840e+00 -4.269184e+01 0 0 0 0 -2.478840e+00 -4.269184e+01
 61650000000 -2.451811e+00 -4.324846e+01 0 0 0 0 -2.451811e+00 -4.324846e+01
 61665000000 -2.504413e+00 -4.374761e+01 0 0 0 0 -2.504413e+00 -4.374761e+01
 61680000000 -2.514779e+00 -4.420780e+01 0 0 0 0 -2.514779e+00 -4.420780e+01
 61695000000 -2.531517e+00 -4.471790e+01 0 0 0 0 -2.531517e+00 -4.471790e+01
 61710000000 -2.520154e+00 -4.533105e+01 0 0 0 0 -2.520154e+00 -4.533105e+01
 61725000000 -2.530018e+00 -4.598081e+01 0 0 0 0 -2.530018e+00 -4.598081e+01
 61740000000 -2.511410e+00 -4.640894e+01 0 0 0 0 -2.511410e+00 -4.640894e+01
 61755000000 -2.512160e+00 -4.700163e+01 0 0 0 0 -2.512160e+00 -4.700163e+01
 61770000000 -2.562360e+00 -4.754556e+01 0 0 0 0 -2.562360e+00 -4.754556e+01
 61785000000 -2.538709e+00 -4.788927e+01 0 0 0 0 -2.538709e+00 -4.788927e+01
 61800000000 -2.582649e+00 -4.862431e+01 0 0 0 0 -2.582649e+00 -4.862431e+01
 61815000000 -2.579186e+00 -4.919012e+01 0 0 0 0 -2.579186e+00 -4.919012e+01
 61830000000 -2.591895e+00 -4.944283e+01 0 0 0 0 -2.591895e+00 -4.944283e+01
 61845000000 -2.586841e+00 -5.025032e+01 0 0 0 0 -2.586841e+00 -5.025032e+01
 61860000000 -2.630991e+00 -5.063703e+01 0 0 0 0 -2.630991e+00 -5.063703e+01
 61875000000 -2.644688e+00 -5.122065e+01 0 0 0 0 -2.644688e+00 -5.122065e+01
 61890000000 -2.634567e+00 -5.171317e+01 0 0 0 0 -2.634567e+00 -5.171317e+01
 61905000000 -2.633819e+00 -5.211962e+01 0 0 0 0 -2.633819e+00 -5.211962e+01
 61920000000 -2.660586e+00 -5.280076e+01 0 0 0 0 -2.660586e+00 -5.280076e+01
 61935000000 -2.673281e+00 -5.341917e+01 0 0 0 0 -2.673281e+00 -5.341917e+01
 61950000000 -2.671599e+00 -5.381733e+01 0 0 0 0 -2.671599e+00 -5.381733e+01
 61965000000 -2.682705e+00 -5.430664e+01 0 0 0 0 -2.682705e+00 -5.430664e+01
 61980000000 -2.688756e+00 -5.496054e+01 0 0 0 0 -2.688756e+00 -5.496054e+01
 61995000000 -2.717941e+00 -5.547809e+01 0 0 0 0 -2.717941e+00 -5.547809e+01
 62010000000 -2.711946e+00 -5.600943e+01 0 0 0 0 -2.711946e+00 -5.600943e+01
 62025000000 -2.731407e+00 -5.632648e+01 0 0 0 0 -2.731407e+00 -5.632648e+01
 62040000000 -2.818744e+00 -5.705757e+01 0 0 0 0 -2.818744e+00 -5.705757e+01
 62055000000 -2.738597e+00 -5.743339e+01 0 0 0 0 -2.738597e+00 -5.743339e+01
 62070000000 -2.763761e+00 -5.793313e+01 0 0 0 0 -2.763761e+00 -5.793313e+01
 62085000000 -2.791323e+00 -5.836642e+01 0 0 0 0 -2.791323e+00 -5.836642e+01
 62100000000 -2.789137e+00 -5.912211e+01 0 0 0 0 -2.789137e+00 -5.912211e+01
 62115000000 -2.804698e+00 -5.934697e+01 0 0 0 0 -2.804698e+00 -5.934697e+01
 62130000000 -2.831083e+00 -5.997753e+01 0 0 0 0 -2.831083e+00 -5.997753e+01
 62145000000 -2.815797e+00 -6.040418e+01 0 0 0 0 -2.815797e+00 -6.040418e+01
 62160000000 -2.832122e+00 -6.126438e+01 0 0 0 0 -2.832122e+00 -6.126438e+01
 62175000000 -2.878775e+00 -6.186558e+01 0 0 0 0 -2.878775e+00 -6.186558e+01
 62190000000 -2.911065e+00 -6.203611e+01 0 0 0 0 -2.911065e+00 -6.203611e+01
 62205000000 -2.883766e+00 -6.252620e+01 0 0 0 0 -2.883766e+00 -6.252620e+01
 62220000000 -2.905976e+00 -6.324458e+01 0 0 0 0 -2.905976e+00 -6.324458e+01
 62235000000 -2.960520e+00 -6.350493e+01 0 0 0 0 -2.960520e+00 -6.350493e+01
 62250000000 -2.924036e+00 -6.413358e+01 0 0 0 0 -2.924036e+00 -6.413358e+01
 62265000000 -2.949048e+00 -6.484913e+01 0 0 0 0 -2.949048e+00 -6.484913e+01
 62280000000 -2.903061e+00 -6.518318e+01 0 0 0 0 -2.903061e+00 -6.518318e+01
 62295000000 -2.945068e+00 -6.603874e+01 0 0 0 0 -2.945068e+00 -6.603874e+01
 62310000000 -3.013088e+00 -6.652532e+01 0 0 0 0 -3.013088e+00 -6.652532e+01
 62325000000 -3.000816e+00 -6.677125e+01 0 0 0 0 -3.000816e+00 -6.677125e+01
 62340000000 -3.001980e+00 -6.755319e+01 0 0 0 0 -3.001980e+00 -6.755319e+01
 62355000000 -3.045802e+00 -6.773390e+01 0 0 0 0 -3.045802e+00 -6.773390e+01
 62370000000 -3.062928e+00 -6.825323e+01 0 0 0 0 -3.062928e+00 -6.825323e+01
 62385000000 -3.056441e+00 -6.889316e+01 0 0 0 0 -3.056441e+00 -6.889316e+01
 62400000000 -3.066747e+00 -6.912603e+01 0 0 0 0 -3.066747e+00 -6.912603e+01
 62415000000 -3.065554e+00 -6.988969e+01 0 0 0 0 -3.065554e+00 -6.988969e+01
 62430000000 -3.123580e+00 -7.044605e+01 0 0 0 0 -3.123580e+00 -7.044605e+01
 62445000000 -3.125867e+00 -7.099581e+01 0 0 0 0 -3.125867e+00 -7.099581e+01
 62460000000 -3.134830e+00 -7.131521e+01 0 0 0 0 -3.134830e+00 -7.131521e+01
 62475000000 -3.173249e+00 -7.207482e+01 0 0 0 0 -3.173249e+00 -7.207482e+01
 62490000000 -3.176574e+00 -7.220402e+01 0 0 0 0 -3.176574e+00 -7.220402e+01
 62505000000 -3.170436e+00 -7.310991e+01 0 0 0 0 -3.170436e+00 -7.310991e+01
 62520000000 -3.201846e+00 -7.327942e+01 0 0 0 0 -3.201846e+00 -7.327942e+01
 62535000000 -3.225592e+00 -7.389403e+01 0 0 0 0 -3.225592e+00 -7.389403e+01
 62550000000 -3.208189e+00 -7.458177e+01 0 0 0 0 -3.208189e+00 -7.458177e+01
 62565000000 -3.247175e+00 -7.507662e+01 0 0 0 0 -3.247175e+00 -7.507662e+01
 62580000000 -3.268690e+00 -7.523949e+01 0 0 0 0 -3.268690e+00 -7.523949e+01
 62595000000 -3.321659e+00 -7.615000e+01 0 0 0 0 -3.321659e+00 -7.615000e+01
 62610000000 -3.292440e+00 -7.622682e+01 0 0 0 0 -3.292440e+00 -7.622682e+01
 62625000000 -3.320099e+00 -7.688835e+01 0 0 0 0 -3.320099e+00 -7.688835e+01
 62640000000 -3.344674e+00 -7.753056e+01 0 0 0 0 -3.344674e+00 -7.753056e+01
 62655000000 -3.356685e+00 -7.799677e+01 0 0 0 0 -3.356685e+00 -7.799677e+01
 62670000000 -3.381023e+00 -7.853459e+01 0 0 0 0 -3.381023e+00 -7.853459e+01
 62685000000 -3.390746e+00 -7.893799e+01 0 0 0 0 -3.390746e+00 -7.893799e+01
 62700000000 -3.395285e+00 -7.946122e+01 0 0 0 0 -3.395285e+00 -7.946122e+01
 62715000000 -3.437197e+00 -8.025383e+01 0 0 0 0 -3.437197e+00 -8.025383e+01
 62730000000 -3.469366e+00 -8.057852e+01 0 0 0 0 -3.469366e+00 -8.057852e+01
 62745000000 -3.459388e+00 -8.119446e+01 0 0 0 0 -3.459388e+00 -8.119446e+01
 62760000000 -3.496193e+00 -8.153311e+01 0 0 0 0 -3.496193e+00 -8.153311e+01
 62775000000 -3.501964e+00 -8.211848e+01 0 0 0 0 -3.501964e+00 -8.211848e+01
 62790000000 -3.516480e+00 -8.257960e+01 0 0 0 0 -3.516480e+00 -8.257960e+01
 62805000000 -3.512519e+00 -8.309198e+01 0 0 0 0 -3.512519e+00 -8.309198e+01
 62820000000 -3.571364e+00 -8.370309e+01 0 0 0 0 -3.571364e+00 -8.370309e+01
 62835000000 -3.582394e+00 -8.416937e+01 0 0 0 0 -3.582394e+00 -8.416937e+01
 62850000000 -3.585910e+00 -8.474541e+01 0 0 0 0 -3.585910e+00 -8.474541e+01
 62865000000 -3.624276e+00 -8.507134e+01 0 0 0 0 -3.624276e+00 -8.507134e+01
 62880000000 -3.607205e+00 -8.549971e+01 0 0 0 0 -3.607205e+00 -8.549971e+01
 62895000000 -3.618846e+00 -8.627987e+01 0 0 0 0 -3.618846e+00 -8.627987e+01
 62910000000 -3.649019e+00 -8.641913e+01 0 0 0 0 -3.649019e+00 -8.641913e+01
 62925000000 -3.682617e+00 -8.745799e+01 0 0 0 0 -3.682617e+00 -8.745799e+01
 62940000000 -3.662726e+00 -8.759773e+01 0 0 0 0 -3.662726e+00 -8.759773e+01
 62955000000 -3.710004e+00 -8.827193e+01 0 0 0 0 -3.710004e+00 -8.827193e+01
 62970000000 -3.757617e+00 -8.886240e+01 0 0 0 0 -3.757617e+00 -8.886240e+01
 62985000000 -3.747588e+00 -8.918225e+01 0 0 0 0 -3.747588e+00 -8.918225e+01
 63000000000 -3.775239e+00 -8.989429e+01 0 0 0 0 -3.775239e+00 -8.989429e+01
 63015000000 -3.770204e+00 -9.050639e+01 0 0 0 0 -3.770204e+00 -9.050639e+01
 63030000000 -3.800816e+00 -9.094813e+01 0 0 0 0 -3.800816e+00 -9.094813e+01
 63045000000 -3.823335e+00 -9.144658e+01 0 0 0 0 -3.823335e+00 -9.144658e+01
 63060000000 -3.890225e+00 -9.191160e+01 0 0 0 0 -3.890225e+00 -9.191160e+01
 63075000000 -3.880870e+00 -9.254130e+01 0 0 0 0 -3.880870e+00 -9.254130e+01
 63090000000 -3.921322e+00 -9.311892e+01 0 0 0 0 -3.921322e+00 -9.311892e+01
 63105000000 -3.888946e+00 -9.344405e+01 0 0 0 0 -3.888946e+00 -9.344405e+01
 63120000000 -3.928063e+00 -9.406500e+01 0 0 0 0 -3.928063e+00 -9.406500e+01
 63135000000 -3.947938e+00 -9.446350e+01 0 0 0 0 -3.947938e+00 -9.446350e+01
 63150000000 -3.961314e+00 -9.508701e+01 0 0 0 0 -3.961314e+00 -9.508701e+01
 63165000000 -3.947758e+00 -9.548483e+01 0 0 0 0 -3.947758e+00 -9.548483e+01
 63180000000 -3.999762e+00 -9.620009e+01 0 0 0 0 -3.999762e+00 -9.620009e+01
 63195000000 -4.020747e+00 -9.669373e+01 0 0 0 0 -4.020747e+00 -9.669373e+01
 63210000000 -4.013088e+00 -9.718087e+01 0 0 0 0 -4.013088e+00 -9.718087e+01
 63225000000 -4.054580e+00 -9.788191e+01 0 0 0 0 -4.054580e+00 -9.788191e+01
 63240000000 -4.069233e+00 -9.810305e+01 0 0 0 0 -4.069233e+00 -9.810305e+01
 63255000000 -4.093825e+00 -9.858531e+01 0 0 0 0 -4.093825e+00 -9.858531e+01
 63270000000 -4.117289e+00 -9.928757e+01 0 0 0 0 -4.117289e+00 -9.928757e+01
 63285000000 -4.133686e+00 -9.998669e+01 0 0 0 0 -4.133686e+00 -9.998669e+01
 63300000000 -4.156806e+00 -1.003585e+02 0 0 0 0 -4.156806e+00 -1.003585e+02
 63315000000 -4.186635e+00 -1.005789e+02 0 0 0 0 -4.186635e+00 -1.005789e+02
 63330000000 -4.162152e+00 -1.014173e+02 0 0 0 0 -4.162152e+00 -1.014173e+02
 63345000000 -4.201792e+00 -1.016983e+02 0 0 0 0 -4.201792e+00 -1.016983e+02
 63360000000 -4.258663e+00 -1.022795e+02 0 0 0 0 -4.258663e+00 -1.022795e+02
 63375000000 -4.242125e+00 -1.026454e+02 0 0 0 0 -4.242125e+00 -1.026454e+02
 63390000000 -4.288141e+00 -1.032663e+02 0 0 0 0 -4.288141e+00 -1.032663e+02
 63405000000 -4.328813e+00 -1.037036e+02 0 0 0 0 -4.328813e+00 -1.037036e+02
 63420000000 -4.331815e+00 -1.041633e+02 0 0 0 0 -4.331815e+00 -1.041633e+02
 63435000000 -4.357220e+00 -1.046380e+02 0 0 0 0 -4.357220e+00 -1.046380e+02
 63450000000 -4.379948e+00 -1.052962e+02 0 0 0 0 -4.379948e+00 -1.052962e+02
 63465000000 -4.406772e+00 -1.057902e+02 0 0 0 0 -4.406772e+00 -1.057902e+02
 63480000000 -4.415078e+00 -1.062451e+02 0 0 0 0 -4.415078e+00 -1.062451e+02
 63495000000 -4.440492e+00 -1.068516e+02 0 0 0 0 -4.440492e+00 -1.068516e+02
 63510000000 -4.433890e+00 -1.072661e+02 0 0 0 0 -4.433890e+00 -1.072661e+02
 63525000000 -4.491247e+00 -1.081113e+02 0 0 0 0 -4.491247e+00 -1.081113e+02
 63540000000 -4.542069e+00 -1.084610e+02 0 0 0 0 -4.542069e+00 -1.084610e+02
 63555000000 -4.562873e+00 -1.091504e+02 0 0 0 0 -4.562873e+00 -1.091504e+02
 63570000000 -4.543130e+00 -1.094816e+02 0 0 0 0 -4.543130e+00 -1.094816e+02
 63585000000 -4.565844e+00 -1.099258e+02 0 0 0 0 -4.565844e+00 -1.099258e+02
 63600000000 -4.582683e+00 -1.103427e+02 0 0 0 0 -4.582683e+00 -1.103427e+02
 63615000000 -4.627144e+00 -1.108369e+02 0 0 0 0 -4.627144e+00 -1.108369e+02
 63630000000 -4.621537e+00 -1.115771e+02 0 0 0 0 -4.621537e+00 -1.115771e+02
 63645000000 -4.627938e+00 -1.120117e+02 0 0 0 0 -4.627938e+00 -1.120117e+02
 63660000000 -4.651361e+00 -1.125062e+02 0 0 0 0 -4.651361e+00 -1.125062e+02
 63675000000 -4.749846e+00 -1.131768e+02 0 0 0 0 -4.749846e+00 -1.131768e+02
 63690000000 -4.739010e+00 -1.136471e+02 0 0 0 0 -4.739010e+00 -1.136471e+02
 63705000000 -4.737949e+00 -1.140850e+02 0 0 0 0 -4.737949e+00 -1.140850e+02
 63720000000 -4.789381e+00 -1.147587e+02 0 0 0 0 -4.789381e+00 -1.147587e+02
 63735000000 -4.784289e+00 -1.151369e+02 0 0 0 0 -4.784289e+00 -1.151369e+02
 63750000000 -4.785112e+00 -1.158168e+02 0 0 0 0 -4.785112e+00 -1.158168e+02
 63765000000 -4.859396e+00 -1.161171e+02 0 0 0 0 -4.859396e+00 -1.161171e+02
 63780000000 -4.860494e+00 -1.169437e+02 0 0 0 0 -4.860494e+00 -1.169437e+02
 63795000000 -4.868289e+00 -1.172923e+02 0 0 0 0 -4.868289e+00 -1.172923e+02
 63810000000 -4.922012e+00 -1.179177e+02 0 0 0 0 -4.922012e+00 -1.179177e+02
 63825000000 -4.931946e+00 -1.182759e+02 0 0 0 0 -4.931946e+00 -1.182759e+02
 63840000000 -4.944835e+00 -1.190513e+02 0 0 0 0 -4.944835e+00 -1.190513e+02
