!Keysight Technologies,N5242A,MY56023178,A.10.60.03
!Date: Tuesday, August 25, 2020 09:26:59
!Correction: S11(Full 2 Port(1,2))
!S21(Full 2 Port(1,2))
!S12(Full 2 Port(1,2))
!S22(Full 2 Port(1,2))
!S2P File: Measurements: S11, S21, S12, S22:
# Hz S  dB   R 50
 60000000000 -1.341288e+00 -5.203186e+01 0 0 0 0 -1.341288e+00 -5.203186e+01
 60015000000 -1.356841e+00 -5.245332e+01 0 0 0 0 -1.356841e+00 -5.245332e+01
 60030000000 -1.360711e+00 -5.270698e+01 0 0 0 0 -1.360711e+00 -5.270698e+01
 60045000000 -1.377977e+00 -5.275160e+01 0 0 0 0 -1.377977e+00 -5.275160e+01
 60060000000 -1.385966e+00 -5.321664e+01 0 0 0 0 -1.385966e+00 -5.321664e+01
 60075000000 -1.361476e+00 -5.311096e+01 0 0 0 0 -1.361476e+00 -5.311096e+01
 60090000000 -1.370688e+00 -5.341541e+01 0 0 0 0 -1.370688e+00 -5.341541e+01
 60105000000 -1.355353e+00 -5.360457e+01 0 0 0 0 -1.355353e+00 -5.360457e+01
 60120000000 -1.383000e+00 -5.377330e+01 0 0 0 0 -1.383000e+00 -5.377330e+01
 60135000000 -1.364847e+00 -5.388951e+01 0 0 0 0 -1.364847e+00 -5.388951e+01
 60150000000 -1.334474e+00 -5.409551e+01 0 0 0 0 -1.334474e+00 -5.409551e+01
 60165000000 -1.396849e+00 -5.432379e+01 0 0 0 0 -1.396849e+00 -5.432379e+01
 60180000000 -1.381308e+00 -5.463225e+01 0 0 0 0 -1.381308e+00 -5.463225e+01
 60195000000 -1.407243e+00 -5.487576e+01 0 0 0 0 -1.407243e+00 -5.487576e+01
 60210000000 -1.422810e+00 -5.529438e+01 0 0 0 0 -1.422810e+00 -5.529438e+01
 60225000000 -1.385257e+00 -5.528510e+01 0 0 0 0 -1.385257e+00 -5.528510e+01
 60240000000 -1.396826e+00 -5.556145e+01 0 0 0 0 -1.396826e+00 -5.556145e+01
 60255000000 -1.396737e+00 -5.577795e+01 0 0 0 0 -1.396737e+00 -5.577795e+01
 60270000000 -1.375432e+00 -5.591373e+01 0 0 0 0 -1.375432e+00 -5.591373e+01
 60285000000 -1.416766e+00 -5.610938e+01 0 0 0 0 -1.416766e+00 -5.610938e+01
 60300000000 -1.412172e+00 -5.633704e+01 0 0 0 0 -1.412172e+00 -5.633704e+01
 60315000000 -1.426792e+00 -5.680176e+01 0 0 0 0 -1.426792e+00 -5.680176e+01
 60330000000 -1.403576e+00 -5.696042e+01 0 0 0 0 -1.403576e+00 -5.696042e+01
 60345000000 -1.421984e+00 -5.701415e+01 0 0 0 0 -1.421984e+00 -5.701415e+01
 60360000000 -1.483678e+00 -5.744097e+01 0 0 0 0 -1.483678e+00 -5.744097e+01
 60375000000 -1.450179e+00 -5.740725e+01 0 0 0 0 -1.450179e+00 -5.740725e+01
 60390000000 -1.435705e+00 -5.746354e+01 0 0 0 0 -1.435705e+00 -5.746354e+01
 60405000000 -1.440367e+00 -5.785712e+01 0 0 0 0 -1.440367e+00 -5.785712e+01
 60420000000 -1.441892e+00 -5.821598e+01 0 0 0 0 -1.441892e+00 -5.821598e+01
 60435000000 -1.485953e+00 -5.812938e+01 0 0 0 0 -1.485953e+00 -5.812938e+01
 60450000000 -1.448110e+00 -5.854139e+01 0 0 0 0 -1.448110e+00 -5.854139e+01
 60465000000 -1.451497e+00 -5.849754e+01 0 0 0 0 -1.451497e+00 -5.849754e+01
 60480000000 -1.464368e+00 -5.878041e+01 0 0 0 0 -1.464368e+00 -5.878041e+01
 60495000000 -1.442670e+00 -5.934985e+01 0 0 0 0 -1.442670e+00 -5.934985e+01
 60510000000 -1.474409e+00 -5.905580e+01 0 0 0 0 -1.474409e+00 -5.905580e+01
 60525000000 -1.470301e+00 -5.967498e+01 0 0 0 0 -1.470301e+00 -5.967498e+01
 60540000000 -1.491124e+00 -5.994566e+01 0 0 0 0 -1.491124e+00 -5.994566e+01
 60555000000 -1.485653e+00 -5.986637e+01 0 0 0 0 -1.485653e+00 -5.986637e+01
 60570000000 -1.465331e+00 -6.042169e+01 0 0 0 0 -1.465331e+00 -6.042169e+01
 60585000000 -1.515556e+00 -6.055796e+01 0 0 0 0 -1.515556e+00 -6.055796e+01
 60600000000 -1.478807e+00 -6.051576e+01 0 0 0 0 -1.478807e+00 -6.051576e+01
 60615000000 -1.473964e+00 -6.080580e+01 0 0 0 0 -1.473964e+00 -6.080580e+01
 60630000000 -1.508717e+00 -6.115530e+01 0 0 0 0 -1.508717e+00 -6.115530e+01
 60645000000 -1.505213e+00 -6.151358e+01 0 0 0 0 -1.505213e+00 -6.151358e+01
 60660000000 -1.512104e+00 -6.147563e+01 0 0 0 0 -1.512104e+00 -6.147563e+01
 60675000000 -1.540692e+00 -6.173171e+01 0 0 0 0 -1.540692e+00 -6.173171e+01
 60690000000 -1.515973e+00 -6.161123e+01 0 0 0 0 -1.515973e+00 -6.161123e+01
 60705000000 -1.566662e+00 -6.204068e+01 0 0 0 0 -1.566662e+00 -6.204068e+01
 60720000000 -1.558072e+00 -6.251174e+01 0 0 0 0 -1.558072e+00 -6.251174e+01
 60735000000 -1.564573e+00 -6.252672e+01 0 0 0 0 -1.564573e+00 -6.252672e+01
 60750000000 -1.585072e+00 -6.253380e+01 0 0 0 0 -1.585072e+00 -6.253380e+01
 60765000000 -1.527315e+00 -6.313128e+01 0 0 0 0 -1.527315e+00 -6.313128e+01
 60780000000 -1.536802e+00 -6.316981e+01 0 0 0 0 -1.536802e+00 -6.316981e+01
 60795000000 -1.576313e+00 -6.348743e+01 0 0 0 0 -1.576313e+00 -6.348743e+01
 60810000000 -1.579188e+00 -6.371087e+01 0 0 0 0 -1.579188e+00 -6.371087e+01
 60825000000 -1.587934e+00 -6.368795e+01 0 0 0 0 -1.587934e+00 -6.368795e+01
 60840000000 -1.569276e+00 -6.416402e+01 0 0 0 0 -1.569276e+00 -6.416402e+01
 60855000000 -1.595728e+00 -6.429205e+01 0 0 0 0 -1.595728e+00 -6.429205e+01
 60870000000 -1.578805e+00 -6.448467e+01 0 0 0 0 -1.578805e+00 -6.448467e+01
 60885000000 -1.579698e+00 -6.460203e+01 0 0 0 0 -1.579698e+00 -6.460203e+01
 60900000000 -1.627135e+00 -6.518746e+01 0 0 0 0 -1.627135e+00 -6.518746e+01
 60915000000 -1.625894e+00 -6.517863e+01 0 0 0 0 -1.625894e+00 -6.517863e+01
 60930000000 -1.625862e+00 -6.534279e+01 0 0 0 0 -1.625862e+00 -6.534279e+01
 60945000000 -1.631431e+00 -6.561715e+01 0 0 0 0 -1.631431e+00 -6.561715e+01
 60960000000 -1.685227e+00 -6.560384e+01 0 0 0 0 -1.685227e+00 -6.560384e+01
 60975000000 -1.627730e+00 -6.608270e+01 0 0 0 0 -1.627730e+00 -6.608270e+01
 60990000000 -1.648477e+00 -6.641598e+01 0 0 0 0 -1.648477e+00 -6.641598e+01
 61005000000 -1.670275e+00 -6.671468e+01 0 0 0 0 -1.670275e+00 -6.671468e+01
 61020000000 -1.675303e+00 -6.694250e+01 0 0 0 0 -1.675303e+00 -6.694250e+01
 61035000000 -1.634006e+00 -6.693008e+01 0 0 0 0 -1.634006e+00 -6.693008e+01
 61050000000 -1.666873e+00 -6.725252e+01 0 0 0 0 -1.666873e+00 -6.725252e+01
 61065000000 -1.701114e+00 -6.720923e+01 0 0 0 0 -1.701114e+00 -6.720923e+01
 61080000000 -1.675776e+00 -6.766639e+01 0 0 0 0 -1.675776e+00 -6.766639e+01
 61095000000 -1.701770e+00 -6.790444e+01 0 0 0 0 -1.701770e+00 -6.790444e+01
 61110000000 -1.697145e+00 -6.816167e+01 0 0 0 0 -1.697145e+00 -6.816167e+01
 61125000000 -1.731691e+00 -6.825523e+01 0 0 0 0 -1.731691e+00 -6.825523e+01
 61140000000 -1.721250e+00 -6.857484e+01 0 0 0 0 -1.721250e+00 -6.857484e+01
 61155000000 -1.701955e+00 -6.864900e+01 0 0 0 0 -1.701955e+00 -6.864900e+01
 61170000000 -1.731446e+00 -6.896651e+01 0 0 0 0 -1.731446e+00 -6.896651e+01
 61185000000 -1.753096e+00 -6.928079e+01 0 0 0 0 -1.753096e+00 -6.928079e+01
 61200000000 -1.752725e+00 -6.935148e+01 0 0 0 0 -1.752725e+00 -6.935148e+01
 61215000000 -1.754595e+00 -6.987858e+01 0 0 0 0 -1.754595e+00 -6.987858e+01
 61230000000 -1.770049e+00 -7.004001e+01 0 0 0 0 -1.770049e+00 -7.004001e+01
 61245000000 -1.740805e+00 -7.004519e+01 0 0 0 0 -1.740805e+00 -7.004519e+01
 61260000000 -1.747945e+00 -7.024548e+01 0 0 0 0 -1.747945e+00 -7.024548e+01
 61275000000 -1.780099e+00 -7.051321e+01 0 0 0 0 -1.780099e+00 -7.051321e+01
 61290000000 -1.761527e+00 -7.081816e+01 0 0 0 0 -1.761527e+00 -7.081816e+01
 61305000000 -1.787969e+00 -7.114527e+01 0 0 0 0 -1.787969e+00 -7.114527e+01
 61320000000 -1.795392e+00 -7.109485e+01 0 0 0 0 -1.795392e+00 -7.109485e+01
 61335000000 -1.812950e+00 -7.142873e+01 0 0 0 0 -1.812950e+00 -7.142873e+01
 61350000000 -1.817919e+00 -7.149159e+01 0 0 0 0 -1.817919e+00 -7.149159e+01
 61365000000 -1.791755e+00 -7.199689e+01 0 0 0 0 -1.791755e+00 -7.199689e+01
 61380000000 -1.806455e+00 -7.184655e+01 0 0 0 0 -1.806455e+00 -7.184655e+01
 61395000000 -1.833035e+00 -7.217400e+01 0 0 0 0 -1.833035e+00 -7.217400e+01
 61410000000 -1.820992e+00 -7.258124e+01 0 0 0 0 -1.820992e+00 -7.258124e+01
 61425000000 -1.852939e+00 -7.265514e+01 0 0 0 0 -1.852939e+00 -7.265514e+01
 61440000000 -1.857732e+00 -7.284630e+01 0 0 0 0 -1.857732e+00 -7.284630e+01
 61455000000 -1.849539e+00 -7.299512e+01 0 0 0 0 -1.849539e+00 -7.299512e+01
 61470000000 -1.862855e+00 -7.335905e+01 0 0 0 0 -1.862855e+00 -7.335905e+01
 61485000000 -1.880463e+00 -7.360911e+01 0 0 0 0 -1.880463e+00 -7.360911e+01
 61500000000 -1.871335e+00 -7.382187e+01 0 0 0 0 -1.871335e+00 -7.382187e+01
 61515000000 -1.910243e+00 -7.393666e+01 0 0 0 0 -1.910243e+00 -7.393666e+01
 61530000000 -1.902562e+00 -7.400874e+01 0 0 0 0 -1.902562e+00 -7.400874e+01
 61545000000 -1.899123e+00 -7.416923e+01 0 0 0 0 -1.899123e+00 -7.416923e+01
 61560000000 -1.924824e+00 -7.437751e+01 0 0 0 0 -1.924824e+00 -7.437751e+01
 61575000000 -1.886511e+00 -7.494912e+01 0 0 0 0 -1.886511e+00 -7.494912e+01
 61590000000 -1.934605e+00 -7.490905e+01 0 0 0 0 -1.934605e+00 -7.490905e+01
 61605000000 -1.969580e+00 -7.512669e+01 0 0 0 0 -1.969580e+00 -7.512669e+01
 61620000000 -1.939396e+00 -7.550008e+01 0 0 0 0 -1.939396e+00 -7.550008e+01
 61635000000 -1.956384e+00 -7.562909e+01 0 0 0 0 -1.956384e+00 -7.562909e+01
 61650000000 -1.934911e+00 -7.575496e+01 0 0 0 0 -1.934911e+00 -7.575496e+01
 61665000000 -1.995292e+00 -7.605117e+01 0 0 0 0 -1.995292e+00 -7.605117e+01
 61680000000 -1.994615e+00 -7.607195e+01 0 0 0 0 -1.994615e+00 -7.607195e+01
 61695000000 -2.011073e+00 -7.639606e+01 0 0 0 0 -2.011073e+00 -7.639606e+01
 61710000000 -1.990443e+00 -7.669146e+01 0 0 0 0 -1.990443e+00 -7.669146e+01
 61725000000 -2.008912e+00 -7.706302e+01 0 0 0 0 -2.008912e+00 -7.706302e+01
 61740000000 -1.989792e+00 -7.704571e+01 0 0 0 0 -1.989792e+00 -7.704571e+01
 61755000000 -1.987444e+00 -7.734645e+01 0 0 0 0 -1.987444e+00 -7.734645e+01
 61770000000 -2.018203e+00 -7.773909e+01 0 0 0 0 -2.018203e+00 -7.773909e+01
 61785000000 -2.005196e+00 -7.763663e+01 0 0 0 0 -2.005196e+00 -7.763663e+01
 61800000000 -2.045514e+00 -7.807306e+01 0 0 0 0 -2.045514e+00 -7.807306e+01
 61815000000 -2.049045e+00 -7.829411e+01 0 0 0 0 -2.049045e+00 -7.829411e+01
 61830000000 -2.054449e+00 -7.817441e+01 0 0 0 0 -2.054449e+00 -7.817441e+01
 61845000000 -2.044744e+00 -7.879342e+01 0 0 0 0 -2.044744e+00 -7.879342e+01
 61860000000 -2.088362e+00 -7.887663e+01 0 0 0 0 -2.088362e+00 -7.887663e+01
 61875000000 -2.097559e+00 -7.918880e+01 0 0 0 0 -2.097559e+00 -7.918880e+01
 61890000000 -2.082912e+00 -7.923483e+01 0 0 0 0 -2.082912e+00 -7.923483e+01
 61905000000 -2.088430e+00 -7.938429e+01 0 0 0 0 -2.088430e+00 -7.938429e+01
 61920000000 -2.103553e+00 -7.977406e+01 0 0 0 0 -2.103553e+00 -7.977406e+01
 61935000000 -2.108885e+00 -8.003258e+01 0 0 0 0 -2.108885e+00 -8.003258e+01
 61950000000 -2.105804e+00 -8.017177e+01 0 0 0 0 -2.105804e+00 -8.017177e+01
 61965000000 -2.107951e+00 -8.033919e+01 0 0 0 0 -2.107951e+00 -8.033919e+01
 61980000000 -2.098357e+00 -8.059833e+01 0 0 0 0 -2.098357e+00 -8.059833e+01
 61995000000 -2.146232e+00 -8.084797e+01 0 0 0 0 -2.146232e+00 -8.084797e+01
 62010000000 -2.121861e+00 -8.099583e+01 0 0 0 0 -2.121861e+00 -8.099583e+01
 62025000000 -2.148078e+00 -8.104465e+01 0 0 0 0 -2.148078e+00 -8.104465e+01
 62040000000 -2.220854e+00 -8.152848e+01 0 0 0 0 -2.220854e+00 -8.152848e+01
 62055000000 -2.144332e+00 -8.151387e+01 0 0 0 0 -2.144332e+00 -8.151387e+01
 62070000000 -2.155815e+00 -8.171113e+01 0 0 0 0 -2.155815e+00 -8.171113e+01
 62085000000 -2.178567e+00 -8.183357e+01 0 0 0 0 -2.178567e+00 -8.183357e+01
 62100000000 -2.184031e+00 -8.230465e+01 0 0 0 0 -2.184031e+00 -8.230465e+01
 62115000000 -2.184057e+00 -8.227776e+01 0 0 0 0 -2.184057e+00 -8.227776e+01
 62130000000 -2.218277e+00 -8.236437e+01 0 0 0 0 -2.218277e+00 -8.236437e+01
 62145000000 -2.182886e+00 -8.263830e+01 0 0 0 0 -2.182886e+00 -8.263830e+01
 62160000000 -2.200513e+00 -8.317790e+01 0 0 0 0 -2.200513e+00 -8.317790e+01
 62175000000 -2.231255e+00 -8.348119e+01 0 0 0 0 -2.231255e+00 -8.348119e+01
 62190000000 -2.252611e+00 -8.329564e+01 0 0 0 0 -2.252611e+00 -8.329564e+01
 62205000000 -2.238081e+00 -8.353240e+01 0 0 0 0 -2.238081e+00 -8.353240e+01
 62220000000 -2.246164e+00 -8.391504e+01 0 0 0 0 -2.246164e+00 -8.391504e+01
 62235000000 -2.297543e+00 -8.391905e+01 0 0 0 0 -2.297543e+00 -8.391905e+01
 62250000000 -2.252770e+00 -8.417463e+01 0 0 0 0 -2.252770e+00 -8.417463e+01
 62265000000 -2.261976e+00 -8.456354e+01 0 0 0 0 -2.261976e+00 -8.456354e+01
 62280000000 -2.211467e+00 -8.456789e+01 0 0 0 0 -2.211467e+00 -8.456789e+01
 62295000000 -2.241809e+00 -8.514517e+01 0 0 0 0 -2.241809e+00 -8.514517e+01
 62310000000 -2.296114e+00 -8.531698e+01 0 0 0 0 -2.296114e+00 -8.531698e+01
 62325000000 -2.263967e+00 -8.514815e+01 0 0 0 0 -2.263967e+00 -8.514815e+01
 62340000000 -2.281605e+00 -8.564662e+01 0 0 0 0 -2.281605e+00 -8.564662e+01
 62355000000 -2.322289e+00 -8.561306e+01 0 0 0 0 -2.322289e+00 -8.561306e+01
 62370000000 -2.320931e+00 -8.578316e+01 0 0 0 0 -2.320931e+00 -8.578316e+01
 62385000000 -2.315798e+00 -8.616832e+01 0 0 0 0 -2.315798e+00 -8.616832e+01
 62400000000 -2.319042e+00 -8.602983e+01 0 0 0 0 -2.319042e+00 -8.602983e+01
 62415000000 -2.295270e+00 -8.646494e+01 0 0 0 0 -2.295270e+00 -8.646494e+01
 62430000000 -2.338876e+00 -8.685451e+01 0 0 0 0 -2.338876e+00 -8.685451e+01
 62445000000 -2.337612e+00 -8.690621e+01 0 0 0 0 -2.337612e+00 -8.690621e+01
 62460000000 -2.341750e+00 -8.714139e+01 0 0 0 0 -2.341750e+00 -8.714139e+01
 62475000000 -2.356428e+00 -8.746764e+01 0 0 0 0 -2.356428e+00 -8.746764e+01
 62490000000 -2.372141e+00 -8.739610e+01 0 0 0 0 -2.372141e+00 -8.739610e+01
 62505000000 -2.340244e+00 -8.795980e+01 0 0 0 0 -2.340244e+00 -8.795980e+01
 62520000000 -2.363321e+00 -8.795692e+01 0 0 0 0 -2.363321e+00 -8.795692e+01
 62535000000 -2.369319e+00 -8.809415e+01 0 0 0 0 -2.369319e+00 -8.809415e+01
 62550000000 -2.346998e+00 -8.849604e+01 0 0 0 0 -2.346998e+00 -8.849604e+01
 62565000000 -2.373508e+00 -8.871993e+01 0 0 0 0 -2.373508e+00 -8.871993e+01
 62580000000 -2.380206e+00 -8.861055e+01 0 0 0 0 -2.380206e+00 -8.861055e+01
 62595000000 -2.428747e+00 -8.918569e+01 0 0 0 0 -2.428747e+00 -8.918569e+01
 62610000000 -2.379090e+00 -8.900381e+01 0 0 0 0 -2.379090e+00 -8.900381e+01
 62625000000 -2.410234e+00 -8.940405e+01 0 0 0 0 -2.410234e+00 -8.940405e+01
 62640000000 -2.420920e+00 -8.961629e+01 0 0 0 0 -2.420920e+00 -8.961629e+01
 62655000000 -2.436130e+00 -8.984505e+01 0 0 0 0 -2.436130e+00 -8.984505e+01
 62670000000 -2.450664e+00 -9.018024e+01 0 0 0 0 -2.450664e+00 -9.018024e+01
 62685000000 -2.440682e+00 -9.019682e+01 0 0 0 0 -2.440682e+00 -9.019682e+01
 62700000000 -2.430351e+00 -9.043988e+01 0 0 0 0 -2.430351e+00 -9.043988e+01
 62715000000 -2.454678e+00 -9.088459e+01 0 0 0 0 -2.454678e+00 -9.088459e+01
 62730000000 -2.484609e+00 -9.103484e+01 0 0 0 0 -2.484609e+00 -9.103484e+01
 62745000000 -2.474251e+00 -9.132195e+01 0 0 0 0 -2.474251e+00 -9.132195e+01
 62760000000 -2.486134e+00 -9.130689e+01 0 0 0 0 -2.486134e+00 -9.130689e+01
 62775000000 -2.475909e+00 -9.156566e+01 0 0 0 0 -2.475909e+00 -9.156566e+01
 62790000000 -2.475644e+00 -9.175688e+01 0 0 0 0 -2.475644e+00 -9.175688e+01
 62805000000 -2.480787e+00 -9.198500e+01 0 0 0 0 -2.480787e+00 -9.198500e+01
 62820000000 -2.513468e+00 -9.234135e+01 0 0 0 0 -2.513468e+00 -9.234135e+01
 62835000000 -2.517824e+00 -9.247963e+01 0 0 0 0 -2.517824e+00 -9.247963e+01
 62850000000 -2.514432e+00 -9.272350e+01 0 0 0 0 -2.514432e+00 -9.272350e+01
 62865000000 -2.532918e+00 -9.281074e+01 0 0 0 0 -2.532918e+00 -9.281074e+01
 62880000000 -2.512683e+00 -9.289386e+01 0 0 0 0 -2.512683e+00 -9.289386e+01
 62895000000 -2.505938e+00 -9.334430e+01 0 0 0 0 -2.505938e+00 -9.334430e+01
 62910000000 -2.538450e+00 -9.320150e+01 0 0 0 0 -2.538450e+00 -9.320150e+01
 62925000000 -2.535712e+00 -9.394599e+01 0 0 0 0 -2.535712e+00 -9.394599e+01
 62940000000 -2.519610e+00 -9.380090e+01 0 0 0 0 -2.519610e+00 -9.380090e+01
 62955000000 -2.550710e+00 -9.425465e+01 0 0 0 0 -2.550710e+00 -9.425465e+01
 62970000000 -2.585953e+00 -9.449059e+01 0 0 0 0 -2.585953e+00 -9.449059e+01
 62985000000 -2.564916e+00 -9.444172e+01 0 0 0 0 -2.564916e+00 -9.444172e+01
 63000000000 -2.587179e+00 -9.486390e+01 0 0 0 0 -2.587179e+00 -9.486390e+01
 63015000000 -2.573310e+00 -9.530094e+01 0 0 0 0 -2.573310e+00 -9.530094e+01
 63030000000 -2.591601e+00 -9.540093e+01 0 0 0 0 -2.591601e+00 -9.540093e+01
 63045000000 -2.610487e+00 -9.566663e+01 0 0 0 0 -2.610487e+00 -9.566663e+01
 63060000000 -2.645783e+00 -9.569098e+01 0 0 0 0 -2.645783e+00 -9.569098e+01
 63075000000 -2.634521e+00 -9.603353e+01 0 0 0 0 -2.634521e+00 -9.603353e+01
 63090000000 -2.676320e+00 -9.623041e+01 0 0 0 0 -2.676320e+00 -9.623041e+01
 63105000000 -2.614808e+00 -9.642041e+01 0 0 0 0 -2.614808e+00 -9.642041e+01
 63120000000 -2.643217e+00 -9.668479e+01 0 0 0 0 -2.643217e+00 -9.668479e+01
 63135000000 -2.650672e+00 -9.678123e+01 0 0 0 0 -2.650672e+00 -9.678123e+01
 63150000000 -2.641605e+00 -9.711066e+01 0 0 0 0 -2.641605e+00 -9.711066e+01
 63165000000 -2.632387e+00 -9.721528e+01 0 0 0 0 -2.632387e+00 -9.721528e+01
 63180000000 -2.672810e+00 -9.756002e+01 0 0 0 0 -2.672810e+00 -9.756002e+01
 63195000000 -2.667647e+00 -9.782002e+01 0 0 0 0 -2.667647e+00 -9.782002e+01
 63210000000 -2.663556e+00 -9.802407e+01 0 0 0 0 -2.663556e+00 -9.802407e+01
 63225000000 -2.680925e+00 -9.836700e+01 0 0 0 0 -2.680925e+00 -9.836700e+01
 63240000000 -2.689725e+00 -9.831690e+01 0 0 0 0 -2.689725e+00 -9.831690e+01
 63255000000 -2.701764e+00 -9.855006e+01 0 0 0 0 -2.701764e+00 -9.855006e+01
 63270000000 -2.709069e+00 -9.883661e+01 0 0 0 0 -2.709069e+00 -9.883661e+01
 63285000000 -2.700182e+00 -9.937731e+01 0 0 0 0 -2.700182e+00 -9.937731e+01
 63300000000 -2.731164e+00 -9.944522e+01 0 0 0 0 -2.731164e+00 -9.944522e+01
 63315000000 -2.738516e+00 -9.934080e+01 0 0 0 0 -2.738516e+00 -9.934080e+01
 63330000000 -2.724128e+00 -9.984813e+01 0 0 0 0 -2.724128e+00 -9.984813e+01
 63345000000 -2.737904e+00 -9.991283e+01 0 0 0 0 -2.737904e+00 -9.991283e+01
 63360000000 -2.775638e+00 -1.000758e+02 0 0 0 0 -2.775638e+00 -1.000758e+02
 63375000000 -2.749788e+00 -1.002323e+02 0 0 0 0 -2.749788e+00 -1.002323e+02
 63390000000 -2.776149e+00 -1.005491e+02 0 0 0 0 -2.776149e+00 -1.005491e+02
 63405000000 -2.806714e+00 -1.006534e+02 0 0 0 0 -2.806714e+00 -1.006534e+02
 63420000000 -2.815432e+00 -1.008272e+02 0 0 0 0 -2.815432e+00 -1.008272e+02
 63435000000 -2.817832e+00 -1.010016e+02 0 0 0 0 -2.817832e+00 -1.010016e+02
 63450000000 -2.819745e+00 -1.013612e+02 0 0 0 0 -2.819745e+00 -1.013612e+02
 63465000000 -2.837848e+00 -1.015492e+02 0 0 0 0 -2.837848e+00 -1.015492e+02
 63480000000 -2.850397e+00 -1.016772e+02 0 0 0 0 -2.850397e+00 -1.016772e+02
 63495000000 -2.848654e+00 -1.020226e+02 0 0 0 0 -2.848654e+00 -1.020226e+02
 63510000000 -2.839632e+00 -1.021491e+02 0 0 0 0 -2.839632e+00 -1.021491e+02
 63525000000 -2.892821e+00 -1.026373e+02 0 0 0 0 -2.892821e+00 -1.026373e+02
 63540000000 -2.913681e+00 -1.025906e+02 0 0 0 0 -2.913681e+00 -1.025906e+02
 63555000000 -2.927571e+00 -1.029426e+02 0 0 0 0 -2.927571e+00 -1.029426e+02
 63570000000 -2.888645e+00 -1.030043e+02 0 0 0 0 -2.888645e+00 -1.030043e+02
 63585000000 -2.913932e+00 -1.031969e+02 0 0 0 0 -2.913932e+00 -1.031969e+02
 63600000000 -2.899984e+00 -1.032614e+02 0 0 0 0 -2.899984e+00 -1.032614e+02
 63615000000 -2.937060e+00 -1.034641e+02 0 0 0 0 -2.937060e+00 -1.034641e+02
 63630000000 -2.923075e+00 -1.038767e+02 0 0 0 0 -2.923075e+00 -1.038767e+02
 63645000000 -2.922004e+00 -1.039895e+02 0 0 0 0 -2.922004e+00 -1.039895e+02
 63660000000 -2.928793e+00 -1.041319e+02 0 0 0 0 -2.928793e+00 -1.041319e+02
 63675000000 -3.009510e+00 -1.043988e+02 0 0 0 0 -3.009510e+00 -1.043988e+02
 63690000000 -2.982635e+00 -1.045558e+02 0 0 0 0 -2.982635e+00 -1.045558e+02
 63705000000 -2.980367e+00 -1.047502e+02 0 0 0 0 -2.980367e+00 -1.047502e+02
 63720000000 -3.008200e+00 -1.050386e+02 0 0 0 0 -3.008200e+00 -1.050386e+02
 63735000000 -2.982628e+00 -1.051392e+02 0 0 0 0 -2.982628e+00 -1.051392e+02
 63750000000 -2.978429e+00 -1.055256e+02 0 0 0 0 -2.978429e+00 -1.055256e+02
 63765000000 -3.034252e+00 -1.054965e+02 0 0 0 0 -3.034252e+00 -1.054965e+02
 63780000000 -3.040491e+00 -1.060647e+02 0 0 0 0 -3.040491e+00 -1.060647e+02
 63795000000 -3.006754e+00 -1.061162e+02 0 0 0 0 -3.006754e+00 -1.061162e+02
 63810000000 -3.075269e+00 -1.062924e+02 0 0 0 0 -3.075269e+00 -1.062924e+02
 63825000000 -3.048791e+00 -1.063842e+02 0 0 0 0 -3.048791e+00 -1.063842e+02
