!Keysight Technologies,N5242A,MY56023178,A.10.60.03
!Date: Tuesday, August 25, 2020 09:26:59
!Correction: S11(Full 2 Port(1,2))
!S21(Full 2 Port(1,2))
!S12(Full 2 Port(1,2))
!S22(Full 2 Port(1,2))
!S2P File: Measurements: S11, S21, S12, S22:
# Hz S  dB   R 50
 60000000000 -1.474524e+01 -4.756852e+01 -3.097548e+00 1.438297e+02 -3.127872e+00 1.424735e+02 -1.346078e+01 -5.159565e+01
 60015000000 -1.480246e+01 -4.780464e+01 -3.109022e+00 1.434515e+02 -3.142912e+00 1.423790e+02 -1.346147e+01 -5.172493e+01
 60030000000 -1.487333e+01 -4.801137e+01 -3.113963e+00 1.430295e+02 -3.121754e+00 1.422630e+02 -1.347359e+01 -5.190997e+01
 60045000000 -1.489262e+01 -4.767887e+01 -3.117242e+00 1.429026e+02 -3.134589e+00 1.420955e+02 -1.347843e+01 -5.216784e+01
 60060000000 -1.494756e+01 -4.893525e+01 -3.111349e+00 1.427679e+02 -3.113885e+00 1.419554e+02 -1.349349e+01 -5.240637e+01
 60075000000 -1.489526e+01 -4.826352e+01 -3.103383e+00 1.425902e+02 -3.129298e+00 1.417901e+02 -1.349933e+01 -5.265538e+01
 60090000000 -1.493484e+01 -4.812754e+01 -3.089369e+00 1.421318e+02 -3.095052e+00 1.415945e+02 -1.350694e+01 -5.282301e+01
 60105000000 -1.492818e+01 -4.862291e+01 -3.074827e+00 1.419770e+02 -3.116009e+00 1.413388e+02 -1.351214e+01 -5.295900e+01
 60120000000 -1.498709e+01 -4.842840e+01 -3.061800e+00 1.417436e+02 -3.118004e+00 1.410808e+02 -1.351673e+01 -5.313568e+01
 60135000000 -1.488900e+01 -4.860360e+01 -3.046702e+00 1.414845e+02 -3.112146e+00 1.407788e+02 -1.352527e+01 -5.323157e+01
 60150000000 -1.494376e+01 -4.859124e+01 -3.040729e+00 1.412490e+02 -3.116125e+00 1.404550e+02 -1.353471e+01 -5.331971e+01
 60165000000 -1.504690e+01 -4.874090e+01 -3.038025e+00 1.408166e+02 -3.123996e+00 1.401578e+02 -1.354642e+01 -5.339692e+01
 60180000000 -1.499414e+01 -4.899981e+01 -3.040759e+00 1.408949e+02 -3.135265e+00 1.398419e+02 -1.353509e+01 -5.352726e+01
 60195000000 -1.503111e+01 -4.938647e+01 -3.050361e+00 1.404985e+02 -3.132837e+00 1.395564e+02 -1.354579e+01 -5.365066e+01
 60210000000 -1.505642e+01 -4.977485e+01 -3.058716e+00 1.402181e+02 -3.131427e+00 1.392732e+02 -1.354337e+01 -5.376009e+01
 60225000000 -1.499758e+01 -4.987582e+01 -3.073634e+00 1.399820e+02 -3.116988e+00 1.390115e+02 -1.354139e+01 -5.388289e+01
 60240000000 -1.502639e+01 -5.034283e+01 -3.091736e+00 1.397779e+02 -3.116714e+00 1.387796e+02 -1.354614e+01 -5.403042e+01
 60255000000 -1.506944e+01 -5.018100e+01 -3.111428e+00 1.394787e+02 -3.113347e+00 1.385843e+02 -1.355092e+01 -5.417973e+01
 60270000000 -1.502003e+01 -4.992867e+01 -3.121438e+00 1.393664e+02 -3.116146e+00 1.384498e+02 -1.357108e+01 -5.434455e+01
 60285000000 -1.505914e+01 -5.004990e+01 -3.133320e+00 1.391065e+02 -3.147057e+00 1.383329e+02 -1.358931e+01 -5.455704e+01
 60300000000 -1.507720e+01 -5.023355e+01 -3.136305e+00 1.388034e+02 -3.127081e+00 1.382244e+02 -1.360447e+01 -5.471999e+01
 60315000000 -1.516412e+01 -5.061990e+01 -3.135320e+00 1.383954e+02 -3.151759e+00 1.380892e+02 -1.360125e+01 -5.499294e+01
 60330000000 -1.511096e+01 -5.111107e+01 -3.125162e+00 1.382164e+02 -3.141623e+00 1.379765e+02 -1.361924e+01 -5.520444e+01
 60345000000 -1.513571e+01 -5.138841e+01 -3.111943e+00 1.381142e+02 -3.143199e+00 1.378320e+02 -1.364197e+01 -5.544015e+01
 60360000000 -1.516726e+01 -5.165320e+01 -3.094282e+00 1.376874e+02 -3.137103e+00 1.376411e+02 -1.366622e+01 -5.569021e+01
 60375000000 -1.511427e+01 -5.157630e+01 -3.074756e+00 1.376900e+02 -3.149847e+00 1.374180e+02 -1.370467e+01 -5.578499e+01
 60390000000 -1.517849e+01 -5.145342e+01 -3.058216e+00 1.375133e+02 -3.124624e+00 1.371792e+02 -1.372304e+01 -5.592718e+01
 60405000000 -1.519955e+01 -5.158246e+01 -3.037876e+00 1.373851e+02 -3.125262e+00 1.368672e+02 -1.374716e+01 -5.607897e+01
 60420000000 -1.511974e+01 -5.195936e+01 -3.021346e+00 1.369437e+02 -3.113235e+00 1.365256e+02 -1.375447e+01 -5.625862e+01
 60435000000 -1.523537e+01 -5.201668e+01 -3.006021e+00 1.368259e+02 -3.098738e+00 1.362389e+02 -1.374502e+01 -5.645240e+01
 60450000000 -1.519966e+01 -5.285946e+01 -2.991809e+00 1.365046e+02 -3.114045e+00 1.358554e+02 -1.377334e+01 -5.661741e+01
 60465000000 -1.516268e+01 -5.247468e+01 -2.985443e+00 1.361049e+02 -3.100935e+00 1.355086e+02 -1.379961e+01 -5.675730e+01
 60480000000 -1.526682e+01 -5.256395e+01 -2.987440e+00 1.358173e+02 -3.080009e+00 1.352023e+02 -1.381201e+01 -5.685905e+01
 60495000000 -1.527089e+01 -5.330370e+01 -2.998757e+00 1.354497e+02 -3.058795e+00 1.348685e+02 -1.383598e+01 -5.697670e+01
 60510000000 -1.536317e+01 -5.259977e+01 -3.005851e+00 1.352329e+02 -3.098507e+00 1.345806e+02 -1.384683e+01 -5.701385e+01
 60525000000 -1.534917e+01 -5.316160e+01 -3.018374e+00 1.349363e+02 -3.109580e+00 1.343291e+02 -1.386497e+01 -5.705263e+01
 60540000000 -1.542255e+01 -5.307123e+01 -3.030473e+00 1.346723e+02 -3.129746e+00 1.341126e+02 -1.387665e+01 -5.715558e+01
 60555000000 -1.539649e+01 -5.296524e+01 -3.049374e+00 1.344731e+02 -3.134171e+00 1.339647e+02 -1.389166e+01 -5.732235e+01
 60570000000 -1.537106e+01 -5.310664e+01 -3.063115e+00 1.342955e+02 -3.145791e+00 1.337935e+02 -1.391081e+01 -5.751286e+01
 60585000000 -1.536989e+01 -5.341926e+01 -3.067911e+00 1.340813e+02 -3.153504e+00 1.336487e+02 -1.393377e+01 -5.774227e+01
 60600000000 -1.531042e+01 -5.348533e+01 -3.066916e+00 1.340221e+02 -3.134804e+00 1.335111e+02 -1.397047e+01 -5.798156e+01
 60615000000 -1.528072e+01 -5.303849e+01 -3.059994e+00 1.337987e+02 -3.133522e+00 1.333495e+02 -1.400512e+01 -5.816656e+01
 60630000000 -1.536213e+01 -5.458564e+01 -3.052205e+00 1.334500e+02 -3.163176e+00 1.331277e+02 -1.403816e+01 -5.833093e+01
 60645000000 -1.539766e+01 -5.427148e+01 -3.038738e+00 1.334598e+02 -3.141501e+00 1.329241e+02 -1.405396e+01 -5.844663e+01
 60660000000 -1.541901e+01 -5.394705e+01 -3.023823e+00 1.333147e+02 -3.135154e+00 1.326539e+02 -1.406411e+01 -5.856259e+01
 60675000000 -1.540816e+01 -5.410114e+01 -3.006799e+00 1.329621e+02 -3.119885e+00 1.323415e+02 -1.407850e+01 -5.876637e+01
 60690000000 -1.547448e+01 -5.358822e+01 -2.983503e+00 1.326718e+02 -3.116028e+00 1.320191e+02 -1.409571e+01 -5.894852e+01
 60705000000 -1.557889e+01 -5.432949e+01 -2.967473e+00 1.324794e+02 -3.108893e+00 1.316588e+02 -1.410726e+01 -5.910641e+01
 60720000000 -1.562495e+01 -5.540878e+01 -2.955906e+00 1.321501e+02 -3.093194e+00 1.312471e+02 -1.413218e+01 -5.932931e+01
 60735000000 -1.565049e+01 -5.469035e+01 -2.941920e+00 1.317915e+02 -3.064610e+00 1.308855e+02 -1.415848e+01 -5.949065e+01
 60750000000 -1.568497e+01 -5.475288e+01 -2.938240e+00 1.315197e+02 -3.082751e+00 1.305013e+02 -1.417058e+01 -5.946083e+01
 60765000000 -1.566524e+01 -5.485388e+01 -2.940695e+00 1.310745e+02 -3.091591e+00 1.301484e+02 -1.419947e+01 -5.942147e+01
 60780000000 -1.578553e+01 -5.500846e+01 -2.945450e+00 1.307725e+02 -3.099712e+00 1.298264e+02 -1.419924e+01 -5.945498e+01
 60795000000 -1.577825e+01 -5.439966e+01 -2.959374e+00 1.305445e+02 -3.091003e+00 1.295080e+02 -1.421175e+01 -5.954802e+01
 60810000000 -1.583495e+01 -5.454452e+01 -2.978174e+00 1.302787e+02 -3.122201e+00 1.292741e+02 -1.421577e+01 -5.954803e+01
 60825000000 -1.575560e+01 -5.445198e+01 -3.003349e+00 1.300599e+02 -3.122262e+00 1.289888e+02 -1.423039e+01 -5.966923e+01
 60840000000 -1.574266e+01 -5.488876e+01 -3.025657e+00 1.298770e+02 -3.147741e+00 1.287338e+02 -1.422634e+01 -5.978673e+01
 60855000000 -1.583673e+01 -5.489881e+01 -3.046772e+00 1.296817e+02 -3.151733e+00 1.285447e+02 -1.423592e+01 -5.995213e+01
 60870000000 -1.580030e+01 -5.515787e+01 -3.071812e+00 1.295161e+02 -3.148271e+00 1.284185e+02 -1.424844e+01 -6.019660e+01
 60885000000 -1.573473e+01 -5.518238e+01 -3.087994e+00 1.294769e+02 -3.136818e+00 1.282327e+02 -1.426799e+01 -6.054874e+01
 60900000000 -1.577535e+01 -5.610935e+01 -3.093840e+00 1.290929e+02 -3.138082e+00 1.280801e+02 -1.428385e+01 -6.075120e+01
 60915000000 -1.589908e+01 -5.541735e+01 -3.096052e+00 1.288644e+02 -3.133493e+00 1.279332e+02 -1.430466e+01 -6.106214e+01
 60930000000 -1.593776e+01 -5.571949e+01 -3.092711e+00 1.287199e+02 -3.115747e+00 1.277620e+02 -1.433491e+01 -6.135306e+01
 60945000000 -1.601305e+01 -5.607520e+01 -3.080811e+00 1.283831e+02 -3.123999e+00 1.275566e+02 -1.435452e+01 -6.157499e+01
 60960000000 -1.603956e+01 -5.620245e+01 -3.067711e+00 1.280754e+02 -3.096847e+00 1.273041e+02 -1.437597e+01 -6.176322e+01
 60975000000 -1.598225e+01 -5.621759e+01 -3.055152e+00 1.279048e+02 -3.095277e+00 1.269807e+02 -1.437810e+01 -6.191507e+01
 60990000000 -1.606644e+01 -5.705609e+01 -3.044376e+00 1.275810e+02 -3.094079e+00 1.266457e+02 -1.438388e+01 -6.207074e+01
 61005000000 -1.610812e+01 -5.679340e+01 -3.035918e+00 1.271858e+02 -3.100598e+00 1.263213e+02 -1.438755e+01 -6.215658e+01
 61020000000 -1.621437e+01 -5.689419e+01 -3.029729e+00 1.267723e+02 -3.093906e+00 1.259969e+02 -1.439168e+01 -6.219922e+01
 61035000000 -1.612762e+01 -5.653634e+01 -3.030385e+00 1.265420e+02 -3.116573e+00 1.256544e+02 -1.437881e+01 -6.227915e+01
 61050000000 -1.616613e+01 -5.720100e+01 -3.035192e+00 1.262997e+02 -3.102912e+00 1.253588e+02 -1.437437e+01 -6.240659e+01
 61065000000 -1.631593e+01 -5.641310e+01 -3.043903e+00 1.260302e+02 -3.118729e+00 1.250259e+02 -1.435299e+01 -6.255876e+01
 61080000000 -1.617492e+01 -5.705037e+01 -3.067794e+00 1.257304e+02 -3.104654e+00 1.247975e+02 -1.436238e+01 -6.275839e+01
 61095000000 -1.623410e+01 -5.725095e+01 -3.090459e+00 1.255615e+02 -3.148112e+00 1.245858e+02 -1.436350e+01 -6.298348e+01
 61110000000 -1.621334e+01 -5.765322e+01 -3.117363e+00 1.254793e+02 -3.155961e+00 1.244270e+02 -1.437792e+01 -6.320399e+01
 61125000000 -1.629288e+01 -5.790153e+01 -3.140879e+00 1.253408e+02 -3.133384e+00 1.243162e+02 -1.440587e+01 -6.346652e+01
 61140000000 -1.624084e+01 -5.804256e+01 -3.159284e+00 1.251089e+02 -3.158732e+00 1.242038e+02 -1.442675e+01 -6.373721e+01
 61155000000 -1.623903e+01 -5.775233e+01 -3.174366e+00 1.248155e+02 -3.174636e+00 1.240649e+02 -1.443137e+01 -6.394934e+01
 61170000000 -1.630420e+01 -5.817152e+01 -3.174511e+00 1.245790e+02 -3.198582e+00 1.239181e+02 -1.443356e+01 -6.421371e+01
 61185000000 -1.641184e+01 -5.887730e+01 -3.164615e+00 1.245157e+02 -3.185353e+00 1.237782e+02 -1.445563e+01 -6.448149e+01
 61200000000 -1.645836e+01 -5.894812e+01 -3.156275e+00 1.241543e+02 -3.168293e+00 1.236089e+02 -1.446865e+01 -6.472218e+01
 61215000000 -1.642190e+01 -5.954853e+01 -3.146082e+00 1.237980e+02 -3.156833e+00 1.235094e+02 -1.448600e+01 -6.496733e+01
 61230000000 -1.643465e+01 -5.907491e+01 -3.134979e+00 1.235073e+02 -3.168463e+00 1.234179e+02 -1.451393e+01 -6.525574e+01
 61245000000 -1.637203e+01 -5.888380e+01 -3.116940e+00 1.234837e+02 -3.168850e+00 1.232329e+02 -1.453537e+01 -6.543725e+01
 61260000000 -1.641403e+01 -5.926792e+01 -3.096072e+00 1.231195e+02 -3.171437e+00 1.229863e+02 -1.455959e+01 -6.568030e+01
 61275000000 -1.653524e+01 -5.994688e+01 -3.077645e+00 1.228428e+02 -3.164170e+00 1.226990e+02 -1.458194e+01 -6.582767e+01
 61290000000 -1.645421e+01 -5.944234e+01 -3.058659e+00 1.226663e+02 -3.150077e+00 1.223666e+02 -1.459293e+01 -6.594608e+01
 61305000000 -1.649939e+01 -5.997213e+01 -3.045222e+00 1.224669e+02 -3.175052e+00 1.220529e+02 -1.461804e+01 -6.603442e+01
 61320000000 -1.664073e+01 -5.942656e+01 -3.028997e+00 1.222680e+02 -3.190157e+00 1.217239e+02 -1.464377e+01 -6.609256e+01
 61335000000 -1.661557e+01 -6.044791e+01 -3.024689e+00 1.220477e+02 -3.163462e+00 1.213633e+02 -1.465397e+01 -6.621347e+01
 61350000000 -1.672753e+01 -5.945476e+01 -3.023006e+00 1.217870e+02 -3.181805e+00 1.210203e+02 -1.466976e+01 -6.630868e+01
 61365000000 -1.655968e+01 -6.044809e+01 -3.034017e+00 1.214638e+02 -3.184700e+00 1.207304e+02 -1.468124e+01 -6.639432e+01
 61380000000 -1.663801e+01 -5.916019e+01 -3.041912e+00 1.212318e+02 -3.157121e+00 1.204081e+02 -1.469541e+01 -6.655593e+01
 61395000000 -1.679449e+01 -6.003663e+01 -3.061612e+00 1.209660e+02 -3.179042e+00 1.201265e+02 -1.470578e+01 -6.665534e+01
 61410000000 -1.663417e+01 -6.041500e+01 -3.082898e+00 1.206328e+02 -3.168227e+00 1.199071e+02 -1.473127e+01 -6.682170e+01
 61425000000 -1.674463e+01 -6.021105e+01 -3.085786e+00 1.203707e+02 -3.179093e+00 1.197731e+02 -1.476509e+01 -6.699589e+01
 61440000000 -1.673976e+01 -6.040833e+01 -3.095701e+00 1.202558e+02 -3.192524e+00 1.195141e+02 -1.478782e+01 -6.714112e+01
 61455000000 -1.676852e+01 -6.023215e+01 -3.114534e+00 1.201669e+02 -3.190402e+00 1.193742e+02 -1.481499e+01 -6.726400e+01
 61470000000 -1.673140e+01 -6.066395e+01 -3.118674e+00 1.198895e+02 -3.195872e+00 1.192387e+02 -1.484335e+01 -6.739951e+01
 61485000000 -1.677227e+01 -6.054087e+01 -3.118022e+00 1.197401e+02 -3.204449e+00 1.190859e+02 -1.488076e+01 -6.752499e+01
 61500000000 -1.674430e+01 -6.041635e+01 -3.110757e+00 1.196883e+02 -3.190430e+00 1.189385e+02 -1.491421e+01 -6.765405e+01
 61515000000 -1.684454e+01 -6.062655e+01 -3.100441e+00 1.192516e+02 -3.192347e+00 1.187948e+02 -1.494174e+01 -6.787119e+01
 61530000000 -1.686431e+01 -6.058345e+01 -3.084885e+00 1.191960e+02 -3.189449e+00 1.186104e+02 -1.496214e+01 -6.811295e+01
 61545000000 -1.688349e+01 -6.065736e+01 -3.065461e+00 1.188445e+02 -3.185326e+00 1.183201e+02 -1.499182e+01 -6.839940e+01
 61560000000 -1.690025e+01 -6.077604e+01 -3.047852e+00 1.186016e+02 -3.166002e+00 1.179406e+02 -1.500245e+01 -6.868046e+01
 61575000000 -1.674444e+01 -6.189041e+01 -3.030727e+00 1.184470e+02 -3.155777e+00 1.174577e+02 -1.501114e+01 -6.895689e+01
 61590000000 -1.689898e+01 -6.157462e+01 -3.014047e+00 1.181699e+02 -3.155520e+00 1.169919e+02 -1.501826e+01 -6.920124e+01
 61605000000 -1.697065e+01 -6.160481e+01 -3.005816e+00 1.178042e+02 -3.157511e+00 1.165743e+02 -1.503086e+01 -6.934741e+01
 61620000000 -1.693907e+01 -6.252142e+01 -3.011618e+00 1.175539e+02 -3.124318e+00 1.162985e+02 -1.506272e+01 -6.956483e+01
 61635000000 -1.711388e+01 -6.206218e+01 -3.013286e+00 1.172842e+02 -3.144024e+00 1.160223e+02 -1.509237e+01 -6.972026e+01
 61650000000 -1.706117e+01 -6.150380e+01 -3.020251e+00 1.170914e+02 -3.144157e+00 1.156219e+02 -1.514026e+01 -6.993301e+01
 61665000000 -1.723366e+01 -6.230164e+01 -3.026552e+00 1.167185e+02 -3.165749e+00 1.153278e+02 -1.514862e+01 -7.007501e+01
 61680000000 -1.737932e+01 -6.208463e+01 -3.044942e+00 1.163730e+02 -3.174213e+00 1.150571e+02 -1.514269e+01 -7.020107e+01
 61695000000 -1.732993e+01 -6.213323e+01 -3.068613e+00 1.161671e+02 -3.194463e+00 1.147775e+02 -1.515183e+01 -7.035044e+01
 61710000000 -1.725424e+01 -6.193938e+01 -3.097382e+00 1.159564e+02 -3.202021e+00 1.145009e+02 -1.515645e+01 -7.069545e+01
 61725000000 -1.717341e+01 -6.194517e+01 -3.124676e+00 1.156682e+02 -3.192037e+00 1.143696e+02 -1.519099e+01 -7.102041e+01
 61740000000 -1.713118e+01 -6.173603e+01 -3.153859e+00 1.154604e+02 -3.213927e+00 1.142755e+02 -1.519767e+01 -7.142488e+01
 61755000000 -1.716393e+01 -6.202969e+01 -3.171057e+00 1.152304e+02 -3.215197e+00 1.142050e+02 -1.523017e+01 -7.179419e+01
 61770000000 -1.728842e+01 -6.327880e+01 -3.177431e+00 1.151872e+02 -3.227350e+00 1.141214e+02 -1.526143e+01 -7.219693e+01
 61785000000 -1.728338e+01 -6.307683e+01 -3.182799e+00 1.149920e+02 -3.207549e+00 1.140006e+02 -1.529002e+01 -7.245149e+01
 61800000000 -1.734995e+01 -6.383355e+01 -3.178510e+00 1.147975e+02 -3.214195e+00 1.138715e+02 -1.531461e+01 -7.275540e+01
 61815000000 -1.739711e+01 -6.337775e+01 -3.172428e+00 1.145933e+02 -3.195704e+00 1.137411e+02 -1.534935e+01 -7.298019e+01
 61830000000 -1.742785e+01 -6.322117e+01 -3.164683e+00 1.144620e+02 -3.194552e+00 1.135743e+02 -1.537290e+01 -7.318452e+01
 61845000000 -1.741067e+01 -6.440766e+01 -3.151974e+00 1.141464e+02 -3.180355e+00 1.133855e+02 -1.539100e+01 -7.339775e+01
 61860000000 -1.753455e+01 -6.400540e+01 -3.136890e+00 1.137612e+02 -3.180066e+00 1.131327e+02 -1.541106e+01 -7.364203e+01
 61875000000 -1.758543e+01 -6.501289e+01 -3.122366e+00 1.135278e+02 -3.185256e+00 1.128774e+02 -1.543097e+01 -7.387808e+01
 61890000000 -1.768104e+01 -6.455343e+01 -3.109947e+00 1.131397e+02 -3.174778e+00 1.125307e+02 -1.544720e+01 -7.400966e+01
 61905000000 -1.771661e+01 -6.353437e+01 -3.102424e+00 1.129255e+02 -3.167749e+00 1.121746e+02 -1.545060e+01 -7.418873e+01
 61920000000 -1.769438e+01 -6.528501e+01 -3.101377e+00 1.124495e+02 -3.194297e+00 1.119119e+02 -1.545310e+01 -7.433137e+01
 61935000000 -1.783053e+01 -6.574207e+01 -3.088629e+00 1.124463e+02 -3.204108e+00 1.116848e+02 -1.546261e+01 -7.460545e+01
 61950000000 -1.771834e+01 -6.514247e+01 -3.074018e+00 1.121037e+02 -3.211365e+00 1.113564e+02 -1.547785e+01 -7.478500e+01
 61965000000 -1.774605e+01 -6.464645e+01 -3.085787e+00 1.120053e+02 -3.214220e+00 1.108773e+02 -1.549682e+01 -7.500158e+01
 61980000000 -1.770105e+01 -6.490483e+01 -3.127191e+00 1.118895e+02 -3.254089e+00 1.105713e+02 -1.548985e+01 -7.520841e+01
 61995000000 -1.781248e+01 -6.551276e+01 -3.155401e+00 1.115982e+02 -3.243963e+00 1.104468e+02 -1.549994e+01 -7.544959e+01
 62010000000 -1.776403e+01 -6.550622e+01 -3.177258e+00 1.111875e+02 -3.242193e+00 1.103219e+02 -1.550666e+01 -7.565545e+01
 62025000000 -1.777831e+01 -6.478194e+01 -3.193876e+00 1.111965e+02 -3.254740e+00 1.101770e+02 -1.554200e+01 -7.599388e+01
 62040000000 -1.803087e+01 -6.713003e+01 -3.197021e+00 1.108920e+02 -3.255751e+00 1.100700e+02 -1.557550e+01 -7.621000e+01
 62055000000 -1.778749e+01 -6.663077e+01 -3.204928e+00 1.108235e+02 -3.249664e+00 1.100078e+02 -1.563346e+01 -7.645288e+01
 62070000000 -1.788697e+01 -6.700656e+01 -3.201657e+00 1.105081e+02 -3.259581e+00 1.099420e+02 -1.568734e+01 -7.667947e+01
 62085000000 -1.811379e+01 -6.669647e+01 -3.193780e+00 1.103931e+02 -3.241703e+00 1.097628e+02 -1.574517e+01 -7.679386e+01
 62100000000 -1.797322e+01 -6.712692e+01 -3.181444e+00 1.102952e+02 -3.237754e+00 1.095891e+02 -1.578968e+01 -7.691140e+01
 62115000000 -1.816338e+01 -6.614244e+01 -3.169247e+00 1.101140e+02 -3.241522e+00 1.094059e+02 -1.581957e+01 -7.693170e+01
 62130000000 -1.821261e+01 -6.643201e+01 -3.152937e+00 1.099103e+02 -3.228540e+00 1.092210e+02 -1.584283e+01 -7.697750e+01
 62145000000 -1.812305e+01 -6.667323e+01 -3.135165e+00 1.095330e+02 -3.219602e+00 1.089881e+02 -1.587462e+01 -7.714066e+01
 62160000000 -1.810074e+01 -6.750098e+01 -3.115746e+00 1.092014e+02 -3.218656e+00 1.086853e+02 -1.590963e+01 -7.735946e+01
 62175000000 -1.834542e+01 -6.776471e+01 -3.097083e+00 1.090743e+02 -3.221065e+00 1.083496e+02 -1.594229e+01 -7.750100e+01
 62190000000 -1.840649e+01 -6.628393e+01 -3.084156e+00 1.087846e+02 -3.221927e+00 1.079762e+02 -1.597632e+01 -7.762170e+01
 62205000000 -1.831548e+01 -6.625152e+01 -3.077931e+00 1.084774e+02 -3.226664e+00 1.076066e+02 -1.599846e+01 -7.773085e+01
 62220000000 -1.835824e+01 -6.685863e+01 -3.074023e+00 1.083104e+02 -3.223910e+00 1.072775e+02 -1.601284e+01 -7.790240e+01
 62235000000 -1.856077e+01 -6.712163e+01 -3.075031e+00 1.080852e+02 -3.234542e+00 1.069477e+02 -1.602492e+01 -7.802534e+01
 62250000000 -1.833368e+01 -6.689201e+01 -3.085115e+00 1.079863e+02 -3.225641e+00 1.066062e+02 -1.604013e+01 -7.822282e+01
 62265000000 -1.840600e+01 -6.775987e+01 -3.097435e+00 1.076122e+02 -3.205090e+00 1.063498e+02 -1.607049e+01 -7.844853e+01
 62280000000 -1.829089e+01 -6.776176e+01 -3.115194e+00 1.074720e+02 -3.209732e+00 1.060854e+02 -1.610562e+01 -7.874438e+01
 62295000000 -1.829723e+01 -6.886388e+01 -3.135769e+00 1.072367e+02 -3.221667e+00 1.058636e+02 -1.613804e+01 -7.897155e+01
 62310000000 -1.859132e+01 -6.934546e+01 -3.151776e+00 1.069465e+02 -3.217597e+00 1.057094e+02 -1.617763e+01 -7.915713e+01
 62325000000 -1.842162e+01 -6.787044e+01 -3.169475e+00 1.067224e+02 -3.223155e+00 1.055952e+02 -1.621603e+01 -7.939990e+01
 62340000000 -1.848159e+01 -6.875275e+01 -3.180090e+00 1.064281e+02 -3.222628e+00 1.054803e+02 -1.626107e+01 -7.960324e+01
 62355000000 -1.872730e+01 -6.822200e+01 -3.188038e+00 1.061190e+02 -3.203761e+00 1.053768e+02 -1.630181e+01 -7.974264e+01
 62370000000 -1.864714e+01 -6.900852e+01 -3.184483e+00 1.060105e+02 -3.222745e+00 1.052840e+02 -1.635019e+01 -8.009401e+01
 62385000000 -1.864785e+01 -6.919290e+01 -3.180669e+00 1.058263e+02 -3.221107e+00 1.051631e+02 -1.641262e+01 -8.038060e+01
