!Keysight Technologies,N5242A,MY56023178,A.10.60.03
!Date: Tuesday, August 25, 2020 09:26:59
!Correction: S11(Full 2 Port(1,2))
!S21(Full 2 Port(1,2))
!S12(Full 2 Port(1,2))
!S22(Full 2 Port(1,2))
!S2P File: Measurements: S11, S21, S12, S22:
# Hz S  dB   R 50
 60000000000 -1.715452e+01 -1.891535e+01 -4.405589e+00 -1.481823e+02 -4.393147e+00 -1.483372e+02 -1.835721e+01 -3.029810e+01
 60015000000 -1.724076e+01 -1.896546e+01 -4.406199e+00 -1.487911e+02 -4.394961e+00 -1.487752e+02 -1.829772e+01 -3.036065e+01
 60030000000 -1.715849e+01 -1.935940e+01 -4.407326e+00 -1.494782e+02 -4.383186e+00 -1.492283e+02 -1.823769e+01 -3.037845e+01
 60045000000 -1.710950e+01 -1.865863e+01 -4.402072e+00 -1.500422e+02 -4.386627e+00 -1.497274e+02 -1.816867e+01 -3.030500e+01
 60060000000 -1.715308e+01 -1.879047e+01 -4.389999e+00 -1.506335e+02 -4.361903e+00 -1.502417e+02 -1.810295e+01 -3.033454e+01
 60075000000 -1.700934e+01 -1.945733e+01 -4.376860e+00 -1.511039e+02 -4.375897e+00 -1.507606e+02 -1.803098e+01 -3.034927e+01
 60090000000 -1.694869e+01 -1.928770e+01 -4.360281e+00 -1.518914e+02 -4.354687e+00 -1.513241e+02 -1.796678e+01 -3.041170e+01
 60105000000 -1.691252e+01 -1.977843e+01 -4.344961e+00 -1.523596e+02 -4.363902e+00 -1.519445e+02 -1.791000e+01 -3.037348e+01
 60120000000 -1.688492e+01 -1.992452e+01 -4.332912e+00 -1.529909e+02 -4.365472e+00 -1.525983e+02 -1.785002e+01 -3.032762e+01
 60135000000 -1.677616e+01 -1.998629e+01 -4.321544e+00 -1.535496e+02 -4.366885e+00 -1.532767e+02 -1.778575e+01 -3.024558e+01
 60150000000 -1.671348e+01 -2.093955e+01 -4.320232e+00 -1.543609e+02 -4.367119e+00 -1.539534e+02 -1.773188e+01 -3.029749e+01
 60165000000 -1.671187e+01 -1.976514e+01 -4.318059e+00 -1.550106e+02 -4.372165e+00 -1.546053e+02 -1.768451e+01 -3.030616e+01
 60180000000 -1.677281e+01 -2.049347e+01 -4.323605e+00 -1.553490e+02 -4.379347e+00 -1.552682e+02 -1.762386e+01 -3.022321e+01
 60195000000 -1.682255e+01 -2.025269e+01 -4.333900e+00 -1.559604e+02 -4.366009e+00 -1.559141e+02 -1.756234e+01 -3.025131e+01
 60210000000 -1.676487e+01 -2.023761e+01 -4.344171e+00 -1.565248e+02 -4.370274e+00 -1.565308e+02 -1.750680e+01 -3.019304e+01
 60225000000 -1.658753e+01 -2.085265e+01 -4.361400e+00 -1.572217e+02 -4.354281e+00 -1.571063e+02 -1.744884e+01 -3.017538e+01
 60240000000 -1.656397e+01 -2.073806e+01 -4.377010e+00 -1.578380e+02 -4.356684e+00 -1.576732e+02 -1.739613e+01 -3.022656e+01
 60255000000 -1.657414e+01 -2.080909e+01 -4.392019e+00 -1.585632e+02 -4.356179e+00 -1.581865e+02 -1.734321e+01 -3.023008e+01
 60270000000 -1.644526e+01 -2.090558e+01 -4.396588e+00 -1.589708e+02 -4.352846e+00 -1.586454e+02 -1.728020e+01 -3.030751e+01
 60285000000 -1.648858e+01 -2.087984e+01 -4.398301e+00 -1.595711e+02 -4.376018e+00 -1.591196e+02 -1.722961e+01 -3.039969e+01
 60300000000 -1.647798e+01 -2.096242e+01 -4.393142e+00 -1.602115e+02 -4.350689e+00 -1.595793e+02 -1.717815e+01 -3.056137e+01
 60315000000 -1.653196e+01 -2.081186e+01 -4.383725e+00 -1.610519e+02 -4.378395e+00 -1.600688e+02 -1.712025e+01 -3.061520e+01
 60330000000 -1.639813e+01 -2.184609e+01 -4.368024e+00 -1.614388e+02 -4.361192e+00 -1.605489e+02 -1.706645e+01 -3.084453e+01
 60345000000 -1.632140e+01 -2.188556e+01 -4.350389e+00 -1.619292e+02 -4.363506e+00 -1.610961e+02 -1.701650e+01 -3.105877e+01
 60360000000 -1.645712e+01 -2.137180e+01 -4.334380e+00 -1.626325e+02 -4.359835e+00 -1.616746e+02 -1.696929e+01 -3.119680e+01
 60375000000 -1.621250e+01 -2.125926e+01 -4.312984e+00 -1.631835e+02 -4.377056e+00 -1.622486e+02 -1.692606e+01 -3.139533e+01
 60390000000 -1.621457e+01 -2.226399e+01 -4.294701e+00 -1.636502e+02 -4.355694e+00 -1.628924e+02 -1.690262e+01 -3.156213e+01
 60405000000 -1.618844e+01 -2.189161e+01 -4.276973e+00 -1.643100e+02 -4.351896e+00 -1.635937e+02 -1.686349e+01 -3.171410e+01
 60420000000 -1.623611e+01 -2.237431e+01 -4.265444e+00 -1.649554e+02 -4.353713e+00 -1.643000e+02 -1.681258e+01 -3.185891e+01
 60435000000 -1.606118e+01 -2.230501e+01 -4.250202e+00 -1.654281e+02 -4.316754e+00 -1.649955e+02 -1.675790e+01 -3.195824e+01
 60450000000 -1.612128e+01 -2.331938e+01 -4.245811e+00 -1.661284e+02 -4.342527e+00 -1.657319e+02 -1.672416e+01 -3.213038e+01
 60465000000 -1.599288e+01 -2.269348e+01 -4.244055e+00 -1.667830e+02 -4.338194e+00 -1.664074e+02 -1.668404e+01 -3.226014e+01
 60480000000 -1.601557e+01 -2.318393e+01 -4.252808e+00 -1.673999e+02 -4.324366e+00 -1.670560e+02 -1.664243e+01 -3.233490e+01
 60495000000 -1.608622e+01 -2.351943e+01 -4.266381e+00 -1.681879e+02 -4.317823e+00 -1.677022e+02 -1.660304e+01 -3.250813e+01
 60510000000 -1.583344e+01 -2.325062e+01 -4.275788e+00 -1.686695e+02 -4.337025e+00 -1.683554e+02 -1.657449e+01 -3.261434e+01
 60525000000 -1.594950e+01 -2.387732e+01 -4.285757e+00 -1.692753e+02 -4.323293e+00 -1.689354e+02 -1.654537e+01 -3.269132e+01
 60540000000 -1.606887e+01 -2.447361e+01 -4.295196e+00 -1.699425e+02 -4.345867e+00 -1.694782e+02 -1.651995e+01 -3.275490e+01
 60555000000 -1.591012e+01 -2.383494e+01 -4.308300e+00 -1.704890e+02 -4.335196e+00 -1.699914e+02 -1.648546e+01 -3.285265e+01
 60570000000 -1.594239e+01 -2.428783e+01 -4.315625e+00 -1.710464e+02 -4.362455e+00 -1.705199e+02 -1.645219e+01 -3.293995e+01
 60585000000 -1.587510e+01 -2.390283e+01 -4.312581e+00 -1.717673e+02 -4.357642e+00 -1.710309e+02 -1.642730e+01 -3.310645e+01
 60600000000 -1.581185e+01 -2.437239e+01 -4.309623e+00 -1.721592e+02 -4.356321e+00 -1.715294e+02 -1.639298e+01 -3.322894e+01
 60615000000 -1.583369e+01 -2.480911e+01 -4.302331e+00 -1.727310e+02 -4.355486e+00 -1.720462e+02 -1.635493e+01 -3.345656e+01
 60630000000 -1.587984e+01 -2.524283e+01 -4.291240e+00 -1.734608e+02 -4.372970e+00 -1.726295e+02 -1.632299e+01 -3.374926e+01
 60645000000 -1.581442e+01 -2.541079e+01 -4.279413e+00 -1.738633e+02 -4.357968e+00 -1.732418e+02 -1.629115e+01 -3.393447e+01
 60660000000 -1.577444e+01 -2.548787e+01 -4.266157e+00 -1.744038e+02 -4.344343e+00 -1.738744e+02 -1.625215e+01 -3.414982e+01
 60675000000 -1.567194e+01 -2.545433e+01 -4.250319e+00 -1.750959e+02 -4.332846e+00 -1.745634e+02 -1.621381e+01 -3.436193e+01
 60690000000 -1.562071e+01 -2.588611e+01 -4.234924e+00 -1.757510e+02 -4.341851e+00 -1.752774e+02 -1.617519e+01 -3.459257e+01
 60705000000 -1.574003e+01 -2.573864e+01 -4.222797e+00 -1.762429e+02 -4.341237e+00 -1.759723e+02 -1.614122e+01 -3.475194e+01
 60720000000 -1.565805e+01 -2.645270e+01 -4.212677e+00 -1.768538e+02 -4.312714e+00 -1.767374e+02 -1.609498e+01 -3.496749e+01
 60735000000 -1.564047e+01 -2.658997e+01 -4.210020e+00 -1.775230e+02 -4.315318e+00 -1.774220e+02 -1.606451e+01 -3.514902e+01
 60750000000 -1.559280e+01 -2.672402e+01 -4.210568e+00 -1.783454e+02 -4.309589e+00 -1.781340e+02 -1.603094e+01 -3.545570e+01
 60765000000 -1.564533e+01 -2.758480e+01 -4.222073e+00 -1.789333e+02 -4.332948e+00 -1.788093e+02 -1.600882e+01 -3.556437e+01
 60780000000 -1.560461e+01 -2.822575e+01 -4.234658e+00 -1.796910e+02 -4.323257e+00 -1.794534e+02 -1.596826e+01 -3.582803e+01
 60795000000 -1.569004e+01 -2.766223e+01 -4.243485e+00 1.798410e+02 -4.324814e+00 1.799387e+02 -1.594200e+01 -3.595061e+01
 60810000000 -1.566939e+01 -2.792884e+01 -4.260677e+00 1.792528e+02 -4.338302e+00 1.793420e+02 -1.592264e+01 -3.599045e+01
 60825000000 -1.559816e+01 -2.825078e+01 -4.280391e+00 1.785573e+02 -4.351502e+00 1.787217e+02 -1.590724e+01 -3.608447e+01
 60840000000 -1.560256e+01 -2.831096e+01 -4.293745e+00 1.779837e+02 -4.357404e+00 1.781087e+02 -1.586958e+01 -3.619601e+01
 60855000000 -1.558760e+01 -2.814500e+01 -4.307410e+00 1.774007e+02 -4.374667e+00 1.775533e+02 -1.583799e+01 -3.634156e+01
 60870000000 -1.553711e+01 -2.895009e+01 -4.323321e+00 1.769222e+02 -4.358914e+00 1.770682e+02 -1.579633e+01 -3.660414e+01
 60885000000 -1.552787e+01 -2.874492e+01 -4.329291e+00 1.764809e+02 -4.359099e+00 1.765087e+02 -1.575983e+01 -3.692156e+01
 60900000000 -1.554979e+01 -2.871242e+01 -4.330465e+00 1.757286e+02 -4.332495e+00 1.759943e+02 -1.574084e+01 -3.726382e+01
 60915000000 -1.555937e+01 -2.889181e+01 -4.330146e+00 1.752557e+02 -4.345980e+00 1.754838e+02 -1.571310e+01 -3.759577e+01
 60930000000 -1.553197e+01 -2.918582e+01 -4.326306e+00 1.745190e+02 -4.336345e+00 1.749365e+02 -1.569617e+01 -3.790893e+01
 60945000000 -1.551500e+01 -2.958050e+01 -4.316943e+00 1.739380e+02 -4.340216e+00 1.743725e+02 -1.566691e+01 -3.829132e+01
 60960000000 -1.552899e+01 -2.942689e+01 -4.307881e+00 1.733692e+02 -4.327950e+00 1.737691e+02 -1.564275e+01 -3.860633e+01
 60975000000 -1.546444e+01 -3.059072e+01 -4.301935e+00 1.727227e+02 -4.326477e+00 1.731084e+02 -1.560985e+01 -3.890425e+01
 60990000000 -1.553771e+01 -3.108077e+01 -4.296069e+00 1.721541e+02 -4.325731e+00 1.724140e+02 -1.557275e+01 -3.919454e+01
 61005000000 -1.558277e+01 -3.053288e+01 -4.291191e+00 1.714931e+02 -4.317846e+00 1.717587e+02 -1.553995e+01 -3.947503e+01
 61020000000 -1.553860e+01 -3.131741e+01 -4.292497e+00 1.707121e+02 -4.324980e+00 1.711162e+02 -1.551923e+01 -3.972657e+01
 61035000000 -1.543083e+01 -3.196251e+01 -4.295890e+00 1.701158e+02 -4.344436e+00 1.704556e+02 -1.549468e+01 -3.993549e+01
 61050000000 -1.544039e+01 -3.171972e+01 -4.299873e+00 1.695322e+02 -4.328449e+00 1.698058e+02 -1.546508e+01 -4.020237e+01
 61065000000 -1.549164e+01 -3.129660e+01 -4.307815e+00 1.688603e+02 -4.338516e+00 1.691371e+02 -1.543091e+01 -4.041733e+01
 61080000000 -1.543093e+01 -3.212181e+01 -4.326269e+00 1.682573e+02 -4.333373e+00 1.685651e+02 -1.540147e+01 -4.070663e+01
 61095000000 -1.552594e+01 -3.254426e+01 -4.340032e+00 1.677421e+02 -4.366673e+00 1.680011e+02 -1.538324e+01 -4.093994e+01
 61110000000 -1.543407e+01 -3.272539e+01 -4.358386e+00 1.672317e+02 -4.360511e+00 1.674628e+02 -1.537437e+01 -4.121385e+01
 61125000000 -1.544673e+01 -3.274203e+01 -4.375585e+00 1.667720e+02 -4.348699e+00 1.669648e+02 -1.537303e+01 -4.154745e+01
 61140000000 -1.548438e+01 -3.306297e+01 -4.384680e+00 1.660512e+02 -4.360359e+00 1.664719e+02 -1.537505e+01 -4.185072e+01
 61155000000 -1.537500e+01 -3.341467e+01 -4.394221e+00 1.654883e+02 -4.372955e+00 1.659791e+02 -1.536343e+01 -4.219317e+01
 61170000000 -1.542399e+01 -3.364048e+01 -4.392289e+00 1.648602e+02 -4.399248e+00 1.654548e+02 -1.534188e+01 -4.248334e+01
 61185000000 -1.546791e+01 -3.449436e+01 -4.382570e+00 1.643616e+02 -4.405842e+00 1.649542e+02 -1.532473e+01 -4.286651e+01
 61200000000 -1.542125e+01 -3.451335e+01 -4.375500e+00 1.637088e+02 -4.376869e+00 1.644057e+02 -1.531599e+01 -4.319932e+01
 61215000000 -1.542981e+01 -3.488523e+01 -4.367071e+00 1.629817e+02 -4.366425e+00 1.639108e+02 -1.530214e+01 -4.353740e+01
 61230000000 -1.544977e+01 -3.508225e+01 -4.358225e+00 1.623195e+02 -4.375953e+00 1.634329e+02 -1.529006e+01 -4.390147e+01
 61245000000 -1.541084e+01 -3.533538e+01 -4.343749e+00 1.618488e+02 -4.397645e+00 1.628785e+02 -1.527874e+01 -4.428736e+01
 61260000000 -1.541189e+01 -3.578289e+01 -4.327096e+00 1.612300e+02 -4.379865e+00 1.622606e+02 -1.527258e+01 -4.462328e+01
 61275000000 -1.541835e+01 -3.609855e+01 -4.310506e+00 1.606303e+02 -4.365751e+00 1.616115e+02 -1.526350e+01 -4.494717e+01
 61290000000 -1.548240e+01 -3.636465e+01 -4.296467e+00 1.600000e+02 -4.377778e+00 1.609464e+02 -1.525493e+01 -4.525489e+01
 61305000000 -1.548557e+01 -3.687506e+01 -4.286478e+00 1.595237e+02 -4.389382e+00 1.602809e+02 -1.524903e+01 -4.553225e+01
 61320000000 -1.545880e+01 -3.685132e+01 -4.275353e+00 1.588425e+02 -4.406129e+00 1.596123e+02 -1.524637e+01 -4.584491e+01
 61335000000 -1.553251e+01 -3.727017e+01 -4.269810e+00 1.583768e+02 -4.388462e+00 1.589275e+02 -1.523997e+01 -4.613715e+01
 61350000000 -1.549981e+01 -3.735138e+01 -4.271420e+00 1.577539e+02 -4.394956e+00 1.582343e+02 -1.523985e+01 -4.638852e+01
 61365000000 -1.542695e+01 -3.820982e+01 -4.280994e+00 1.570310e+02 -4.398265e+00 1.575914e+02 -1.523893e+01 -4.665612e+01
 61380000000 -1.541458e+01 -3.810768e+01 -4.288737e+00 1.564946e+02 -4.390676e+00 1.569269e+02 -1.522855e+01 -4.692238e+01
 61395000000 -1.549690e+01 -3.825371e+01 -4.302936e+00 1.559132e+02 -4.394681e+00 1.562885e+02 -1.522382e+01 -4.719757e+01
 61410000000 -1.548897e+01 -3.896481e+01 -4.319003e+00 1.551890e+02 -4.373713e+00 1.557055e+02 -1.522503e+01 -4.747253e+01
 61425000000 -1.555443e+01 -3.861321e+01 -4.321894e+00 1.545798e+02 -4.399188e+00 1.551906e+02 -1.522515e+01 -4.773424e+01
 61440000000 -1.559087e+01 -3.893527e+01 -4.331465e+00 1.540715e+02 -4.395649e+00 1.545732e+02 -1.522204e+01 -4.798216e+01
 61455000000 -1.552306e+01 -3.930570e+01 -4.348123e+00 1.535956e+02 -4.398418e+00 1.540799e+02 -1.521917e+01 -4.824248e+01
 61470000000 -1.554126e+01 -3.997927e+01 -4.349931e+00 1.529143e+02 -4.411054e+00 1.535791e+02 -1.521935e+01 -4.852230e+01
 61485000000 -1.557247e+01 -4.019719e+01 -4.349800e+00 1.524154e+02 -4.411171e+00 1.530565e+02 -1.522581e+01 -4.883624e+01
 61500000000 -1.553244e+01 -4.034365e+01 -4.344624e+00 1.519482e+02 -4.420906e+00 1.525288e+02 -1.523613e+01 -4.913929e+01
 61515000000 -1.555192e+01 -4.030420e+01 -4.336317e+00 1.511683e+02 -4.414874e+00 1.520223e+02 -1.523624e+01 -4.953088e+01
 61530000000 -1.556822e+01 -4.069441e+01 -4.323947e+00 1.507130e+02 -4.409328e+00 1.514732e+02 -1.523917e+01 -4.992050e+01
 61545000000 -1.560007e+01 -4.094385e+01 -4.308007e+00 1.501231e+02 -4.412561e+00 1.508355e+02 -1.524306e+01 -5.032637e+01
 61560000000 -1.564360e+01 -4.108272e+01 -4.291596e+00 1.495746e+02 -4.392062e+00 1.501244e+02 -1.523700e+01 -5.073757e+01
 61575000000 -1.557109e+01 -4.214124e+01 -4.274831e+00 1.490680e+02 -4.388851e+00 1.493091e+02 -1.522985e+01 -5.111028e+01
 61590000000 -1.563120e+01 -4.189007e+01 -4.259826e+00 1.483680e+02 -4.393054e+00 1.485102e+02 -1.522498e+01 -5.154632e+01
 61605000000 -1.567502e+01 -4.215903e+01 -4.253388e+00 1.476415e+02 -4.388233e+00 1.477663e+02 -1.522765e+01 -5.188048e+01
 61620000000 -1.565886e+01 -4.311957e+01 -4.259870e+00 1.470999e+02 -4.356645e+00 1.471458e+02 -1.523230e+01 -5.220291e+01
 61635000000 -1.572162e+01 -4.319424e+01 -4.263077e+00 1.465425e+02 -4.360901e+00 1.465138e+02 -1.525688e+01 -5.253051e+01
 61650000000 -1.568941e+01 -4.367175e+01 -4.272042e+00 1.458764e+02 -4.365690e+00 1.457818e+02 -1.529768e+01 -5.285513e+01
 61665000000 -1.582126e+01 -4.377465e+01 -4.276794e+00 1.452269e+02 -4.386847e+00 1.451121e+02 -1.530388e+01 -5.310626e+01
 61680000000 -1.582544e+01 -4.383413e+01 -4.296097e+00 1.444796e+02 -4.378154e+00 1.444660e+02 -1.531089e+01 -5.332367e+01
 61695000000 -1.587724e+01 -4.405792e+01 -4.314822e+00 1.438879e+02 -4.401181e+00 1.438436e+02 -1.531852e+01 -5.348886e+01
 61710000000 -1.586534e+01 -4.428381e+01 -4.338841e+00 1.433411e+02 -4.418980e+00 1.432047e+02 -1.531444e+01 -5.376993e+01
 61725000000 -1.584880e+01 -4.454900e+01 -4.362598e+00 1.426006e+02 -4.406711e+00 1.426733e+02 -1.533144e+01 -5.405894e+01
 61740000000 -1.585432e+01 -4.453110e+01 -4.389803e+00 1.419629e+02 -4.439415e+00 1.422036e+02 -1.531687e+01 -5.437902e+01
 61755000000 -1.587247e+01 -4.480057e+01 -4.406393e+00 1.414494e+02 -4.432332e+00 1.417446e+02 -1.533124e+01 -5.479206e+01
 61770000000 -1.588312e+01 -4.573660e+01 -4.416350e+00 1.409806e+02 -4.445423e+00 1.412985e+02 -1.534134e+01 -5.520755e+01
 61785000000 -1.584868e+01 -4.580597e+01 -4.422062e+00 1.403640e+02 -4.446921e+00 1.407989e+02 -1.535158e+01 -5.558249e+01
 61800000000 -1.594485e+01 -4.613480e+01 -4.421383e+00 1.398785e+02 -4.461284e+00 1.402713e+02 -1.536144e+01 -5.597754e+01
 61815000000 -1.598100e+01 -4.632294e+01 -4.419848e+00 1.393179e+02 -4.446530e+00 1.397898e+02 -1.537424e+01 -5.634912e+01
 61830000000 -1.597696e+01 -4.599147e+01 -4.414599e+00 1.387465e+02 -4.438826e+00 1.392908e+02 -1.538477e+01 -5.676231e+01
 61845000000 -1.597231e+01 -4.711051e+01 -4.404571e+00 1.381776e+02 -4.429368e+00 1.387319e+02 -1.540515e+01 -5.714155e+01
 61860000000 -1.609263e+01 -4.741590e+01 -4.394342e+00 1.375344e+02 -4.426746e+00 1.381168e+02 -1.541759e+01 -5.748875e+01
 61875000000 -1.614447e+01 -4.765331e+01 -4.382278e+00 1.368425e+02 -4.437283e+00 1.375065e+02 -1.543502e+01 -5.785810e+01
 61890000000 -1.614999e+01 -4.782987e+01 -4.372572e+00 1.361884e+02 -4.417420e+00 1.368160e+02 -1.545093e+01 -5.816724e+01
 61905000000 -1.617722e+01 -4.752817e+01 -4.367238e+00 1.355909e+02 -4.417758e+00 1.361288e+02 -1.545665e+01 -5.848245e+01
 61920000000 -1.625098e+01 -4.881852e+01 -4.366663e+00 1.347873e+02 -4.436198e+00 1.355154e+02 -1.547292e+01 -5.879114e+01
 61935000000 -1.626858e+01 -4.929666e+01 -4.359669e+00 1.343571e+02 -4.441354e+00 1.349154e+02 -1.548619e+01 -5.909781e+01
 61950000000 -1.627243e+01 -4.924475e+01 -4.350156e+00 1.337698e+02 -4.447643e+00 1.342458e+02 -1.550014e+01 -5.938513e+01
 61965000000 -1.629484e+01 -4.951719e+01 -4.364770e+00 1.332561e+02 -4.452740e+00 1.334555e+02 -1.551029e+01 -5.967544e+01
 61980000000 -1.628986e+01 -4.978126e+01 -4.402604e+00 1.326920e+02 -4.487761e+00 1.328191e+02 -1.550377e+01 -5.994249e+01
 61995000000 -1.634334e+01 -5.013664e+01 -4.427165e+00 1.320283e+02 -4.488683e+00 1.323600e+02 -1.551223e+01 -6.032166e+01
 62010000000 -1.629761e+01 -5.062208e+01 -4.444589e+00 1.313059e+02 -4.494828e+00 1.318831e+02 -1.552446e+01 -6.065895e+01
 62025000000 -1.636225e+01 -4.993608e+01 -4.458314e+00 1.308480e+02 -4.514524e+00 1.313422e+02 -1.554481e+01 -6.103760e+01
 62040000000 -1.653999e+01 -5.109850e+01 -4.465472e+00 1.303124e+02 -4.503003e+00 1.308659e+02 -1.557275e+01 -6.136812e+01
 62055000000 -1.641488e+01 -5.158990e+01 -4.472857e+00 1.299291e+02 -4.509084e+00 1.304464e+02 -1.560973e+01 -6.177626e+01
 62070000000 -1.645227e+01 -5.160852e+01 -4.473035e+00 1.292675e+02 -4.507818e+00 1.300303e+02 -1.564426e+01 -6.212031e+01
 62085000000 -1.660461e+01 -5.196085e+01 -4.466215e+00 1.287972e+02 -4.518039e+00 1.295045e+02 -1.568233e+01 -6.248938e+01
 62100000000 -1.655107e+01 -5.252356e+01 -4.456250e+00 1.283301e+02 -4.502367e+00 1.289635e+02 -1.571810e+01 -6.283523e+01
 62115000000 -1.667492e+01 -5.216622e+01 -4.445438e+00 1.277562e+02 -4.492043e+00 1.284148e+02 -1.574187e+01 -6.311940e+01
 62130000000 -1.674685e+01 -5.247010e+01 -4.431764e+00 1.272473e+02 -4.494667e+00 1.278869e+02 -1.576952e+01 -6.345067e+01
 62145000000 -1.664972e+01 -5.270698e+01 -4.415192e+00 1.264353e+02 -4.504581e+00 1.273122e+02 -1.580935e+01 -6.387801e+01
 62160000000 -1.673587e+01 -5.418057e+01 -4.396735e+00 1.258957e+02 -4.492671e+00 1.266593e+02 -1.585089e+01 -6.425244e+01
 62175000000 -1.695874e+01 -5.406976e+01 -4.382095e+00 1.253529e+02 -4.483631e+00 1.259760e+02 -1.589051e+01 -6.455899e+01
 62190000000 -1.697461e+01 -5.318816e+01 -4.370475e+00 1.247129e+02 -4.504946e+00 1.252832e+02 -1.593168e+01 -6.486520e+01
 62205000000 -1.696573e+01 -5.379647e+01 -4.363420e+00 1.241275e+02 -4.489178e+00 1.245862e+02 -1.596384e+01 -6.516951e+01
 62220000000 -1.701261e+01 -5.439180e+01 -4.359197e+00 1.235497e+02 -4.495094e+00 1.239040e+02 -1.599171e+01 -6.543860e+01
 62235000000 -1.718254e+01 -5.382564e+01 -4.358094e+00 1.229397e+02 -4.509529e+00 1.232118e+02 -1.602361e+01 -6.571635e+01
 62250000000 -1.705059e+01 -5.494928e+01 -4.369562e+00 1.224728e+02 -4.499639e+00 1.225353e+02 -1.605267e+01 -6.597085e+01
 62265000000 -1.713227e+01 -5.529324e+01 -4.381038e+00 1.217706e+02 -4.485315e+00 1.219083e+02 -1.608789e+01 -6.622968e+01
 62280000000 -1.706721e+01 -5.556938e+01 -4.399228e+00 1.213510e+02 -4.493489e+00 1.212903e+02 -1.611491e+01 -6.657454e+01
 62295000000 -1.712106e+01 -5.652593e+01 -4.418512e+00 1.206736e+02 -4.499591e+00 1.207231e+02 -1.615054e+01 -6.686253e+01
 62310000000 -1.739855e+01 -5.687832e+01 -4.433139e+00 1.200401e+02 -4.506721e+00 1.201971e+02 -1.619273e+01 -6.713797e+01
 62325000000 -1.735993e+01 -5.605994e+01 -4.449197e+00 1.194861e+02 -4.492277e+00 1.197020e+02 -1.623886e+01 -6.741847e+01
 62340000000 -1.738011e+01 -5.666275e+01 -4.462389e+00 1.188235e+02 -4.489413e+00 1.192078e+02 -1.628202e+01 -6.764664e+01
 62355000000 -1.758865e+01 -5.621970e+01 -4.474251e+00 1.180893e+02 -4.487764e+00 1.187401e+02 -1.631741e+01 -6.783586e+01
 62370000000 -1.752932e+01 -5.675474e+01 -4.474702e+00 1.176441e+02 -4.513630e+00 1.182878e+02 -1.635610e+01 -6.822570e+01
